# vsim -c -voptargs="+acc" -do "log -r /*; run -all; quit;" work.axi_tb_top "+UVM_TESTNAME=axi_base_test" "+UVM_VERBOSITY=UVM_HIGH" -sv_seed random -l questa_sim.log 
# Start time: 16:07:58 on Jun 22,2026
# ** Note: (vsim-8009) Loading existing optimized design _opt
# //  Questa Sim-64
# //  Version 10.7c win64 Aug 18 2018
# //
# //  Copyright 1991-2018 Mentor Graphics Corporation
# //  All Rights Reserved.
# //
# //  QuestaSim and its associated documentation contain trade
# //  secrets and commercial or financial information that are the property of
# //  Mentor Graphics Corporation and are privileged, confidential,
# //  and exempt from disclosure under the Freedom of Information Act,
# //  5 U.S.C. Section 552. Furthermore, this information
# //  is prohibited from disclosure under the Trade Secrets Act,
# //  18 U.S.C. Section 1905.
# //
# Loading sv_std.std
# Loading work.axi_master_if(fast)
# Loading work.axi_slave_if(fast)
# Loading mtiUvm.uvm_pkg
# Loading work.axi_pkg(fast)
# Loading work.axi_tb_top(fast)
# Loading work.axi_master_if(fast)
# Loading work.axi_slave_if(fast)
# Loading mtiUvm.questa_uvm_pkg(fast)
# ** Warning: (vsim-8441) Clocking block output vif.slave_drv_cb.arready is not legal in this
# or another expression.
#    Time: 0 ps  Iteration: 0  Region: /axi_pkg::axi_slave_ar_channel_drv File: D:/AMBA/AXI4_new/sim/../src/slave/drivers/ar_channel/axi_slave_ar_channel_drv.sv Line: 46
# Loading C:/questasim64_10.7c/uvm-1.1d\win64\uvm_dpi.dll
# Sv_Seed = 155321354
# log -r /*
#  run -all
# ----------------------------------------------------------------
# UVM-1.1d
# (C) 2007-2013 Mentor Graphics Corporation
# (C) 2007-2013 Cadence Design Systems, Inc.
# (C) 2006-2013 Synopsys, Inc.
# (C) 2011-2013 Cypress Semiconductor Corp.
# ----------------------------------------------------------------
# 
#   ***********       IMPORTANT RELEASE NOTES         ************
# 
#   You are using a version of the UVM library that has been compiled
#   with `UVM_NO_DEPRECATED undefined.
#   See http://www.eda.org/svdb/view.php?id=3313 for more details.
# 
#   You are using a version of the UVM library that has been compiled
#   with `UVM_OBJECT_MUST_HAVE_CONSTRUCTOR undefined.
#   See http://www.eda.org/svdb/view.php?id=3770 for more details.
# 
#       (Specify +UVM_NO_RELNOTES to turn off this notice)
# 
# UVM_INFO verilog_src/questa_uvm_pkg-1.2/src/questa_uvm_pkg.sv(215) @ 0: reporter [Questa UVM] QUESTA_UVM-1.2.3
# UVM_INFO verilog_src/questa_uvm_pkg-1.2/src/questa_uvm_pkg.sv(216) @ 0: reporter [Questa UVM]  questa_uvm::init(+struct)
# UVM_INFO @ 0: reporter [RNTST] Running test axi_base_test...
# UVM_INFO @ 0: reporter [UVMTOP] UVM testbench topology:
# ------------------------------------------------------------------
# Name                         Type                      Size  Value
# ------------------------------------------------------------------
# uvm_test_top                 axi_base_test             -     @477 
#   env_h                      axi_env                   -     @484 
#     axi_m_agt                axi_master_agent_top      -     @491 
#       ar_channel_agt         axi_ar_channel_m_agent    -     @531 
#         drv_h                axi_ar_channel_m_drv      -     @546 
#           rsp_port           uvm_analysis_port         -     @561 
#           seq_item_port      uvm_seq_item_pull_port    -     @553 
#         seqr_h               uvm_sequencer             -     @569 
#           rsp_export         uvm_analysis_export       -     @576 
#           seq_item_export    uvm_seq_item_pull_imp     -     @670 
#           arbitration_queue  array                     0     -    
#           lock_queue         array                     0     -    
#           num_last_reqs      integral                  32    'd1  
#           num_last_rsps      integral                  32    'd1  
#       aw_agt                 axi_aw_channel_m_agt      -     @517 
#         drv_h                axi_aw_channel_m_drv      -     @794 
#           rsp_port           uvm_analysis_port         -     @809 
#           seq_item_port      uvm_seq_item_pull_port    -     @801 
#         seqr_h               uvm_sequencer             -     @685 
#           rsp_export         uvm_analysis_export       -     @692 
#           seq_item_export    uvm_seq_item_pull_imp     -     @786 
#           arbitration_queue  array                     0     -    
#           lock_queue         array                     0     -    
#           num_last_reqs      integral                  32    'd1  
#           num_last_rsps      integral                  32    'd1  
#       r_agt                  axi_r_channel_m_agt       -     @538 
#         drv_h                axi_r_channel_m_drv       -     @933 
#           rsp_port           uvm_analysis_port         -     @948 
#           seq_item_port      uvm_seq_item_pull_port    -     @940 
#         seqr_h               uvm_sequencer             -     @824 
#           rsp_export         uvm_analysis_export       -     @831 
#           seq_item_export    uvm_seq_item_pull_imp     -     @925 
#           arbitration_queue  array                     0     -    
#           lock_queue         array                     0     -    
#           num_last_reqs      integral                  32    'd1  
#           num_last_rsps      integral                  32    'd1  
#       w_agt                  axi_w_channel_m_agt       -     @524 
#         drv_h                axi_w_channel_m_drv       -     @1073
#           rsp_port           uvm_analysis_port         -     @1088
#           seq_item_port      uvm_seq_item_pull_port    -     @1080
#         seqr_h               uvm_sequencer             -     @964 
#           rsp_export         uvm_analysis_export       -     @971 
#           seq_item_export    uvm_seq_item_pull_imp     -     @1065
#           arbitration_queue  array                     0     -    
#           lock_queue         array                     0     -    
#           num_last_reqs      integral                  32    'd1  
#           num_last_rsps      integral                  32    'd1  
#     axi_s_agt                axi_slave_agt_top         -     @498 
#       ar_agt                 axi_slave_ar_channel_agt  -     @1133
#         drv_h                axi_slave_ar_channel_drv  -     @1257
#           rsp_port           uvm_analysis_port         -     @1272
#           seq_item_port      uvm_seq_item_pull_port    -     @1264
#         seqr_h               uvm_sequencer             -     @1148
#           rsp_export         uvm_analysis_export       -     @1155
#           seq_item_export    uvm_seq_item_pull_imp     -     @1249
#           arbitration_queue  array                     0     -    
#           lock_queue         array                     0     -    
#           num_last_reqs      integral                  32    'd1  
#           num_last_rsps      integral                  32    'd1  
#       aw_agt                 axi_aw_channel_s_agt      -     @1103
#         drv_h                axi_aw_channel_s_drv      -     @1395
#           rsp_port           uvm_analysis_port         -     @1410
#           seq_item_port      uvm_seq_item_pull_port    -     @1402
#         rsp_port             uvm_analysis_port         -     @1118
#         seq_item_port        uvm_seq_item_pull_port    -     @1110
#         seqr_h               uvm_sequencer             -     @1286
#           rsp_export         uvm_analysis_export       -     @1293
#           seq_item_export    uvm_seq_item_pull_imp     -     @1387
#           arbitration_queue  array                     0     -    
#           lock_queue         array                     0     -    
#           num_last_reqs      integral                  32    'd1  
#           num_last_rsps      integral                  32    'd1  
#       r_agt                  axi_r_channel_s_agt       -     @1140
#         drv_h                axi_r_channel_s_drv       -     @1535
#           rsp_port           uvm_analysis_port         -     @1550
#           seq_item_port      uvm_seq_item_pull_port    -     @1542
#         seqr_h               uvm_sequencer             -     @1426
#           rsp_export         uvm_analysis_export       -     @1433
#           seq_item_export    uvm_seq_item_pull_imp     -     @1527
#           arbitration_queue  array                     0     -    
#           lock_queue         array                     0     -    
#           num_last_reqs      integral                  32    'd1  
#           num_last_rsps      integral                  32    'd1  
#       w_agt                  axi_w_channel_s_agt       -     @1126
#         drv_h                axi_w_channel_s_drv       -     @1675
#           rsp_port           uvm_analysis_port         -     @1690
#           seq_item_port      uvm_seq_item_pull_port    -     @1682
#         seqr_h               uvm_sequencer             -     @1566
#           rsp_export         uvm_analysis_export       -     @1573
#           seq_item_export    uvm_seq_item_pull_imp     -     @1667
#           arbitration_queue  array                     0     -    
#           lock_queue         array                     0     -    
#           num_last_reqs      integral                  32    'd1  
#           num_last_rsps      integral                  32    'd1  
#     mem_h                    axi_mem_model             -     @505 
# ------------------------------------------------------------------
# 
# UVM_INFO verilog_src/questa_uvm_pkg-1.2/src/questa_uvm_pkg.sv(277) @ 0: reporter [Questa UVM] End Of Elaboration
# UVM_INFO D:/AMBA/AXI4_new/sim/../src/slave/drivers/r_channel/axi_r_channel_s_drv.sv(40) @ 0: uvm_test_top.env_h.axi_s_agt.r_agt.drv_h [axi_r_channel_s_drv] starting_main_phase
# UVM_INFO D:/AMBA/AXI4_new/sim/../src/sequences/master_sequences/axi_master_seqc_base.sv(9) @ 0: uvm_test_top.env_h.axi_m_agt.aw_agt.seqr_h@@m_aw_seqc [axi_m_aw_channel_seqc] Base_Body_seqcs_start's
# UVM_INFO D:/AMBA/AXI4_new/sim/../src/sequences/master_sequences/axi_master_seqc_base.sv(9) @ 0: uvm_test_top.env_h.axi_m_agt.w_agt.seqr_h@@m_w_seqc [axi_m_w_channel_seqc] Base_Body_seqcs_start's
# UVM_INFO D:/AMBA/AXI4_new/sim/../src/sequences/master_sequences/axi_master_seqc_base.sv(9) @ 0: uvm_test_top.env_h.axi_m_agt.ar_channel_agt.seqr_h@@m_ar_seqc [ar_m_chennal_seqc] Base_Body_seqcs_start's
# UVM_INFO D:/AMBA/AXI4_new/sim/../src/sequences/slave_sequences/axi_slave_seqc_base.sv(9) @ 0: uvm_test_top.env_h.axi_s_agt.ar_agt.seqr_h@@a_ar_seqc [axi_s_ar_channel_seqc] slave_body_start's
# UVM_INFO D:/AMBA/AXI4_new/sim/../src/sb/axi_mem_model.sv(28) @ 85000: uvm_test_top.env_h.mem_h [axi_mem_model] Pushed to write_queue[AWID:7]. Queue Size: 1
# Transaction Details:
# -----------------------------------------
# Name       Type             Size  Value  
# -----------------------------------------
# req        axi_slave_trans  -     @1967  
#   awready  integral         1     'h0    
#   awvalid  integral         1     'h1    
#   awsize   integral         3     'h4    
#   awburst  integral         2     'h2    
#   awlen    integral         8     'h1    
#   awstrb   integral         17    'h1e0c2
#   awid     integral         6     'h7    
#   awaddr   integral         32    'h72   
#   arready  integral         1     'h0    
#   arvalid  integral         1     'h0    
#   arid     integral         6     'h0    
#   araddr   integral         32    'h0    
#   arstrb   integral         17    'h0    
#   arsize   integral         3     'h0    
#   arlen    integral         8     'h0    
#   arburst  integral         2     'h0    
#   rready   integral         1     'h0    
#   rvalid   integral         1     'h0    
#   rdata    integral         128   'h0    
#   rid      integral         6     'h0    
#   rlast    integral         1     'h0    
#   rresp    integral         2     'h0    
# -----------------------------------------
# 
# UVM_INFO D:/AMBA/AXI4_new/sim/../src/sb/axi_mem_model.sv(34) @ 95000: uvm_test_top.env_h.mem_h [axi_mem_model] Pushed to read_queue[ARID:16]. Queue Size: 1
# Transaction Details:
# ----------------------------------------------------------------------------------------------------------
# Name                           Type             Size  Value                                               
# ----------------------------------------------------------------------------------------------------------
# req                            axi_slave_trans  -     @1767                                               
#   awready                      integral         1     'h0                                                 
#   awvalid                      integral         1     'h0                                                 
#   awsize                       integral         3     'h0                                                 
#   awburst                      integral         2     'h0                                                 
#   awlen                        integral         8     'h0                                                 
#   awstrb                       integral         17    'h0                                                 
#   awid                         integral         6     'h0                                                 
#   awaddr                       integral         32    'h0                                                 
#   arready                      integral         1     'h1                                                 
#   arvalid                      integral         1     'h1                                                 
#   arid                         integral         6     'h10                                                
#   araddr                       integral         32    'hce                                                
#   arstrb                       integral         17    'h4f64                                              
#   arsize                       integral         3     'h4                                                 
#   arlen                        integral         8     'h9                                                 
#   arburst                      integral         2     'h1                                                 
#   rready                       integral         1     'h0                                                 
#   rvalid                       integral         1     'h0                                                 
#   rdata                        integral         128   'h0                                                 
#   rid                          integral         6     'h0                                                 
#   rlast                        integral         1     'h0                                                 
#   rresp                        integral         2     'h0                                                 
#   begin_time                   time             64    55000                                               
#   depth                        int              32    'd2                                                 
#   parent sequence (name)       string           9     a_ar_seqc                                           
#   parent sequence (full name)  string           52    uvm_test_top.env_h.axi_s_agt.ar_agt.seqr_h.a_ar_seqc
#   sequencer                    string           42    uvm_test_top.env_h.axi_s_agt.ar_agt.seqr_h          
# ----------------------------------------------------------------------------------------------------------
# 
# UVM_INFO D:/AMBA/AXI4_new/sim/../src/sb/axi_mem_model.sv(28) @ 105000: uvm_test_top.env_h.mem_h [axi_mem_model] Pushed to write_queue[AWID:12]. Queue Size: 1
# Transaction Details:
# ---------------------------------------
# Name       Type             Size  Value
# ---------------------------------------
# req        axi_slave_trans  -     @1972
#   awready  integral         1     'h0  
#   awvalid  integral         1     'h1  
#   awsize   integral         3     'h4  
#   awburst  integral         2     'h1  
#   awlen    integral         8     'h4  
#   awstrb   integral         17    'h6d2
#   awid     integral         6     'hc  
#   awaddr   integral         32    'h55 
#   arready  integral         1     'h0  
#   arvalid  integral         1     'h0  
#   arid     integral         6     'h0  
#   araddr   integral         32    'h0  
#   arstrb   integral         17    'h0  
#   arsize   integral         3     'h0  
#   arlen    integral         8     'h0  
#   arburst  integral         2     'h0  
#   rready   integral         1     'h0  
#   rvalid   integral         1     'h0  
#   rdata    integral         128   'h0  
#   rid      integral         6     'h0  
#   rlast    integral         1     'h0  
#   rresp    integral         2     'h0  
# ---------------------------------------
# 
# UVM_INFO D:/AMBA/AXI4_new/sim/../src/sb/axi_mem_model.sv(28) @ 145000: uvm_test_top.env_h.mem_h [axi_mem_model] Pushed to write_queue[AWID:12]. Queue Size: 2
# Transaction Details:
# ----------------------------------------
# Name       Type             Size  Value 
# ----------------------------------------
# req        axi_slave_trans  -     @1996 
#   awready  integral         1     'h0   
#   awvalid  integral         1     'h1   
#   awsize   integral         3     'h4   
#   awburst  integral         2     'h2   
#   awlen    integral         8     'h2   
#   awstrb   integral         17    'h4d1e
#   awid     integral         6     'hc   
#   awaddr   integral         32    'h46  
#   arready  integral         1     'h0   
#   arvalid  integral         1     'h0   
#   arid     integral         6     'h0   
#   araddr   integral         32    'h0   
#   arstrb   integral         17    'h0   
#   arsize   integral         3     'h0   
#   arlen    integral         8     'h0   
#   arburst  integral         2     'h0   
#   rready   integral         1     'h0   
#   rvalid   integral         1     'h0   
#   rdata    integral         128   'h0   
#   rid      integral         6     'h0   
#   rlast    integral         1     'h0   
#   rresp    integral         2     'h0   
# ----------------------------------------
# 
# UVM_INFO D:/AMBA/AXI4_new/sim/../src/sb/axi_mem_model.sv(28) @ 185000: uvm_test_top.env_h.mem_h [axi_mem_model] Pushed to write_queue[AWID:15]. Queue Size: 1
# Transaction Details:
# -----------------------------------------
# Name       Type             Size  Value  
# -----------------------------------------
# req        axi_slave_trans  -     @2020  
#   awready  integral         1     'h0    
#   awvalid  integral         1     'h1    
#   awsize   integral         3     'h4    
#   awburst  integral         2     'h2    
#   awlen    integral         8     'h9    
#   awstrb   integral         17    'h1eb05
#   awid     integral         6     'hf    
#   awaddr   integral         32    'hec   
#   arready  integral         1     'h0    
#   arvalid  integral         1     'h0    
#   arid     integral         6     'h0    
#   araddr   integral         32    'h0    
#   arstrb   integral         17    'h0    
#   arsize   integral         3     'h0    
#   arlen    integral         8     'h0    
#   arburst  integral         2     'h0    
#   rready   integral         1     'h0    
#   rvalid   integral         1     'h0    
#   rdata    integral         128   'h0    
#   rid      integral         6     'h0    
#   rlast    integral         1     'h0    
#   rresp    integral         2     'h0    
# -----------------------------------------
# 
# UVM_INFO D:/AMBA/AXI4_new/sim/../src/sb/axi_mem_model.sv(34) @ 185000: uvm_test_top.env_h.mem_h [axi_mem_model] Pushed to read_queue[ARID:11]. Queue Size: 1
# Transaction Details:
# ----------------------------------------------------------------------------------------------------------
# Name                           Type             Size  Value                                               
# ----------------------------------------------------------------------------------------------------------
# req                            axi_slave_trans  -     @1982                                               
#   awready                      integral         1     'h0                                                 
#   awvalid                      integral         1     'h0                                                 
#   awsize                       integral         3     'h0                                                 
#   awburst                      integral         2     'h0                                                 
#   awlen                        integral         8     'h0                                                 
#   awstrb                       integral         17    'h0                                                 
#   awid                         integral         6     'h0                                                 
#   awaddr                       integral         32    'h0                                                 
#   arready                      integral         1     'h1                                                 
#   arvalid                      integral         1     'h1                                                 
#   arid                         integral         6     'hb                                                 
#   araddr                       integral         32    'h1e                                                
#   arstrb                       integral         17    'hff0b                                              
#   arsize                       integral         3     'h4                                                 
#   arlen                        integral         8     'h5                                                 
#   arburst                      integral         2     'h1                                                 
#   rready                       integral         1     'h0                                                 
#   rvalid                       integral         1     'h0                                                 
#   rdata                        integral         128   'h0                                                 
#   rid                          integral         6     'h0                                                 
#   rlast                        integral         1     'h0                                                 
#   rresp                        integral         2     'h0                                                 
#   begin_time                   time             64    105000                                              
#   depth                        int              32    'd2                                                 
#   parent sequence (name)       string           9     a_ar_seqc                                           
#   parent sequence (full name)  string           52    uvm_test_top.env_h.axi_s_agt.ar_agt.seqr_h.a_ar_seqc
#   sequencer                    string           42    uvm_test_top.env_h.axi_s_agt.ar_agt.seqr_h          
# ----------------------------------------------------------------------------------------------------------
# 
# UVM_INFO D:/AMBA/AXI4_new/sim/../src/sb/axi_mem_model.sv(28) @ 255000: uvm_test_top.env_h.mem_h [axi_mem_model] Pushed to write_queue[AWID:6]. Queue Size: 1
# Transaction Details:
# ----------------------------------------
# Name       Type             Size  Value 
# ----------------------------------------
# req        axi_slave_trans  -     @2044 
#   awready  integral         1     'h0   
#   awvalid  integral         1     'h1   
#   awsize   integral         3     'h4   
#   awburst  integral         2     'h2   
#   awlen    integral         8     'h1   
#   awstrb   integral         17    'hf1ed
#   awid     integral         6     'h6   
#   awaddr   integral         32    'hd5  
#   arready  integral         1     'h0   
#   arvalid  integral         1     'h0   
#   arid     integral         6     'h0   
#   araddr   integral         32    'h0   
#   arstrb   integral         17    'h0   
#   arsize   integral         3     'h0   
#   arlen    integral         8     'h0   
#   arburst  integral         2     'h0   
#   rready   integral         1     'h0   
#   rvalid   integral         1     'h0   
#   rdata    integral         128   'h0   
#   rid      integral         6     'h0   
#   rlast    integral         1     'h0   
#   rresp    integral         2     'h0   
# ----------------------------------------
# 
# UVM_INFO D:/AMBA/AXI4_new/sim/../src/sb/axi_mem_model.sv(34) @ 285000: uvm_test_top.env_h.mem_h [axi_mem_model] Pushed to read_queue[ARID:10]. Queue Size: 1
# Transaction Details:
# ----------------------------------------------------------------------------------------------------------
# Name                           Type             Size  Value                                               
# ----------------------------------------------------------------------------------------------------------
# req                            axi_slave_trans  -     @2048                                               
#   awready                      integral         1     'h0                                                 
#   awvalid                      integral         1     'h0                                                 
#   awsize                       integral         3     'h0                                                 
#   awburst                      integral         2     'h0                                                 
#   awlen                        integral         8     'h0                                                 
#   awstrb                       integral         17    'h0                                                 
#   awid                         integral         6     'h0                                                 
#   awaddr                       integral         32    'h0                                                 
#   arready                      integral         1     'h1                                                 
#   arvalid                      integral         1     'h1                                                 
#   arid                         integral         6     'ha                                                 
#   araddr                       integral         32    'hd8                                                
#   arstrb                       integral         17    'h4fed                                              
#   arsize                       integral         3     'h4                                                 
#   arlen                        integral         8     'h3                                                 
#   arburst                      integral         2     'h1                                                 
#   rready                       integral         1     'h0                                                 
#   rvalid                       integral         1     'h0                                                 
#   rdata                        integral         128   'h0                                                 
#   rid                          integral         6     'h0                                                 
#   rlast                        integral         1     'h0                                                 
#   rresp                        integral         2     'h0                                                 
#   begin_time                   time             64    195000                                              
#   depth                        int              32    'd2                                                 
#   parent sequence (name)       string           9     a_ar_seqc                                           
#   parent sequence (full name)  string           52    uvm_test_top.env_h.axi_s_agt.ar_agt.seqr_h.a_ar_seqc
#   sequencer                    string           42    uvm_test_top.env_h.axi_s_agt.ar_agt.seqr_h          
# ----------------------------------------------------------------------------------------------------------
# 
# UVM_INFO D:/AMBA/AXI4_new/sim/../src/sb/axi_mem_model.sv(34) @ 355000: uvm_test_top.env_h.mem_h [axi_mem_model] Pushed to read_queue[ARID:1]. Queue Size: 1
# Transaction Details:
# ----------------------------------------------------------------------------------------------------------
# Name                           Type             Size  Value                                               
# ----------------------------------------------------------------------------------------------------------
# req                            axi_slave_trans  -     @2104                                               
#   awready                      integral         1     'h0                                                 
#   awvalid                      integral         1     'h0                                                 
#   awsize                       integral         3     'h0                                                 
#   awburst                      integral         2     'h0                                                 
#   awlen                        integral         8     'h0                                                 
#   awstrb                       integral         17    'h0                                                 
#   awid                         integral         6     'h0                                                 
#   awaddr                       integral         32    'h0                                                 
#   arready                      integral         1     'h1                                                 
#   arvalid                      integral         1     'h1                                                 
#   arid                         integral         6     'h1                                                 
#   araddr                       integral         32    'hc9                                                
#   arstrb                       integral         17    'h1d210                                             
#   arsize                       integral         3     'h4                                                 
#   arlen                        integral         8     'h6                                                 
#   arburst                      integral         2     'h1                                                 
#   rready                       integral         1     'h0                                                 
#   rvalid                       integral         1     'h0                                                 
#   rdata                        integral         128   'h0                                                 
#   rid                          integral         6     'h0                                                 
#   rlast                        integral         1     'h0                                                 
#   rresp                        integral         2     'h0                                                 
#   begin_time                   time             64    295000                                              
#   depth                        int              32    'd2                                                 
#   parent sequence (name)       string           9     a_ar_seqc                                           
#   parent sequence (full name)  string           52    uvm_test_top.env_h.axi_s_agt.ar_agt.seqr_h.a_ar_seqc
#   sequencer                    string           42    uvm_test_top.env_h.axi_s_agt.ar_agt.seqr_h          
# ----------------------------------------------------------------------------------------------------------
# 
# UVM_INFO D:/AMBA/AXI4_new/sim/../src/sb/axi_mem_model.sv(28) @ 375000: uvm_test_top.env_h.mem_h [axi_mem_model] Pushed to write_queue[AWID:3]. Queue Size: 1
# Transaction Details:
# ---------------------------------------
# Name       Type             Size  Value
# ---------------------------------------
# req        axi_slave_trans  -     @2084
#   awready  integral         1     'h0  
#   awvalid  integral         1     'h1  
#   awsize   integral         3     'h4  
#   awburst  integral         2     'h2  
#   awlen    integral         8     'h7  
#   awstrb   integral         17    'hdb0
#   awid     integral         6     'h3  
#   awaddr   integral         32    'h16 
#   arready  integral         1     'h0  
#   arvalid  integral         1     'h0  
#   arid     integral         6     'h0  
#   araddr   integral         32    'h0  
#   arstrb   integral         17    'h0  
#   arsize   integral         3     'h0  
#   arlen    integral         8     'h0  
#   arburst  integral         2     'h0  
#   rready   integral         1     'h0  
#   rvalid   integral         1     'h0  
#   rdata    integral         128   'h0  
#   rid      integral         6     'h0  
#   rlast    integral         1     'h0  
#   rresp    integral         2     'h0  
# ---------------------------------------
# 
# UVM_INFO D:/AMBA/AXI4_new/sim/../src/sb/axi_mem_model.sv(34) @ 385000: uvm_test_top.env_h.mem_h [axi_mem_model] Pushed to read_queue[ARID:2]. Queue Size: 1
# Transaction Details:
# ----------------------------------------------------------------------------------------------------------
# Name                           Type             Size  Value                                               
# ----------------------------------------------------------------------------------------------------------
# req                            axi_slave_trans  -     @2136                                               
#   awready                      integral         1     'h0                                                 
#   awvalid                      integral         1     'h0                                                 
#   awsize                       integral         3     'h0                                                 
#   awburst                      integral         2     'h0                                                 
#   awlen                        integral         8     'h0                                                 
#   awstrb                       integral         17    'h0                                                 
#   awid                         integral         6     'h0                                                 
#   awaddr                       integral         32    'h0                                                 
#   arready                      integral         1     'h1                                                 
#   arvalid                      integral         1     'h1                                                 
#   arid                         integral         6     'h2                                                 
#   araddr                       integral         32    'h41                                                
#   arstrb                       integral         17    'h10e49                                             
#   arsize                       integral         3     'h4                                                 
#   arlen                        integral         8     'h6                                                 
#   arburst                      integral         2     'h1                                                 
#   rready                       integral         1     'h0                                                 
#   rvalid                       integral         1     'h0                                                 
#   rdata                        integral         128   'h0                                                 
#   rid                          integral         6     'h0                                                 
#   rlast                        integral         1     'h0                                                 
#   rresp                        integral         2     'h0                                                 
#   begin_time                   time             64    365000                                              
#   depth                        int              32    'd2                                                 
#   parent sequence (name)       string           9     a_ar_seqc                                           
#   parent sequence (full name)  string           52    uvm_test_top.env_h.axi_s_agt.ar_agt.seqr_h.a_ar_seqc
#   sequencer                    string           42    uvm_test_top.env_h.axi_s_agt.ar_agt.seqr_h          
# ----------------------------------------------------------------------------------------------------------
# 
# UVM_INFO D:/AMBA/AXI4_new/sim/../src/sb/axi_mem_model.sv(34) @ 485000: uvm_test_top.env_h.mem_h [axi_mem_model] Pushed to read_queue[ARID:8]. Queue Size: 1
# Transaction Details:
# ----------------------------------------------------------------------------------------------------------
# Name                           Type             Size  Value                                               
# ----------------------------------------------------------------------------------------------------------
# req                            axi_slave_trans  -     @2164                                               
#   awready                      integral         1     'h0                                                 
#   awvalid                      integral         1     'h0                                                 
#   awsize                       integral         3     'h0                                                 
#   awburst                      integral         2     'h0                                                 
#   awlen                        integral         8     'h0                                                 
#   awstrb                       integral         17    'h0                                                 
#   awid                         integral         6     'h0                                                 
#   awaddr                       integral         32    'h0                                                 
#   arready                      integral         1     'h1                                                 
#   arvalid                      integral         1     'h1                                                 
#   arid                         integral         6     'h8                                                 
#   araddr                       integral         32    'hb2                                                
#   arstrb                       integral         17    'h19192                                             
#   arsize                       integral         3     'h4                                                 
#   arlen                        integral         8     'h6                                                 
#   arburst                      integral         2     'h1                                                 
#   rready                       integral         1     'h0                                                 
#   rvalid                       integral         1     'h0                                                 
#   rdata                        integral         128   'h0                                                 
#   rid                          integral         6     'h0                                                 
#   rlast                        integral         1     'h0                                                 
#   rresp                        integral         2     'h0                                                 
#   begin_time                   time             64    395000                                              
#   depth                        int              32    'd2                                                 
#   parent sequence (name)       string           9     a_ar_seqc                                           
#   parent sequence (full name)  string           52    uvm_test_top.env_h.axi_s_agt.ar_agt.seqr_h.a_ar_seqc
#   sequencer                    string           42    uvm_test_top.env_h.axi_s_agt.ar_agt.seqr_h          
# ----------------------------------------------------------------------------------------------------------
# 
# UVM_INFO D:/AMBA/AXI4_new/sim/../src/sb/axi_mem_model.sv(28) @ 495000: uvm_test_top.env_h.mem_h [axi_mem_model] Pushed to write_queue[AWID:13]. Queue Size: 1
# Transaction Details:
# -----------------------------------------
# Name       Type             Size  Value  
# -----------------------------------------
# req        axi_slave_trans  -     @2152  
#   awready  integral         1     'h0    
#   awvalid  integral         1     'h1    
#   awsize   integral         3     'h4    
#   awburst  integral         2     'h1    
#   awlen    integral         8     'h9    
#   awstrb   integral         17    'h17240
#   awid     integral         6     'hd    
#   awaddr   integral         32    'h5b   
#   arready  integral         1     'h0    
#   arvalid  integral         1     'h0    
#   arid     integral         6     'h0    
#   araddr   integral         32    'h0    
#   arstrb   integral         17    'h0    
#   arsize   integral         3     'h0    
#   arlen    integral         8     'h0    
#   arburst  integral         2     'h0    
#   rready   integral         1     'h0    
#   rvalid   integral         1     'h0    
#   rdata    integral         128   'h0    
#   rid      integral         6     'h0    
#   rlast    integral         1     'h0    
#   rresp    integral         2     'h0    
# -----------------------------------------
# 
# UVM_INFO D:/AMBA/AXI4_new/sim/../src/sb/axi_mem_model.sv(34) @ 495000: uvm_test_top.env_h.mem_h [axi_mem_model] Pushed to read_queue[ARID:8]. Queue Size: 2
# Transaction Details:
# ----------------------------------------------------------------------------------------------------------
# Name                           Type             Size  Value                                               
# ----------------------------------------------------------------------------------------------------------
# req                            axi_slave_trans  -     @2208                                               
#   awready                      integral         1     'h0                                                 
#   awvalid                      integral         1     'h0                                                 
#   awsize                       integral         3     'h0                                                 
#   awburst                      integral         2     'h0                                                 
#   awlen                        integral         8     'h0                                                 
#   awstrb                       integral         17    'h0                                                 
#   awid                         integral         6     'h0                                                 
#   awaddr                       integral         32    'h0                                                 
#   arready                      integral         1     'h1                                                 
#   arvalid                      integral         1     'h1                                                 
#   arid                         integral         6     'h8                                                 
#   araddr                       integral         32    'hb2                                                
#   arstrb                       integral         17    'h19192                                             
#   arsize                       integral         3     'h4                                                 
#   arlen                        integral         8     'h6                                                 
#   arburst                      integral         2     'h1                                                 
#   rready                       integral         1     'h0                                                 
#   rvalid                       integral         1     'h0                                                 
#   rdata                        integral         128   'h0                                                 
#   rid                          integral         6     'h0                                                 
#   rlast                        integral         1     'h0                                                 
#   rresp                        integral         2     'h0                                                 
#   begin_time                   time             64    495000                                              
#   depth                        int              32    'd2                                                 
#   parent sequence (name)       string           9     a_ar_seqc                                           
#   parent sequence (full name)  string           52    uvm_test_top.env_h.axi_s_agt.ar_agt.seqr_h.a_ar_seqc
#   sequencer                    string           42    uvm_test_top.env_h.axi_s_agt.ar_agt.seqr_h          
# ----------------------------------------------------------------------------------------------------------
# 
# UVM_INFO D:/AMBA/AXI4_new/sim/../src/sb/axi_mem_model.sv(34) @ 525000: uvm_test_top.env_h.mem_h [axi_mem_model] Pushed to read_queue[ARID:2]. Queue Size: 1
# Transaction Details:
# ----------------------------------------------------------------------------------------------------------
# Name                           Type             Size  Value                                               
# ----------------------------------------------------------------------------------------------------------
# req                            axi_slave_trans  -     @2224                                               
#   awready                      integral         1     'h0                                                 
#   awvalid                      integral         1     'h0                                                 
#   awsize                       integral         3     'h0                                                 
#   awburst                      integral         2     'h0                                                 
#   awlen                        integral         8     'h0                                                 
#   awstrb                       integral         17    'h0                                                 
#   awid                         integral         6     'h0                                                 
#   awaddr                       integral         32    'h0                                                 
#   arready                      integral         1     'h1                                                 
#   arvalid                      integral         1     'h1                                                 
#   arid                         integral         6     'h2                                                 
#   araddr                       integral         32    'ha4                                                
#   arstrb                       integral         17    'h1569c                                             
#   arsize                       integral         3     'h4                                                 
#   arlen                        integral         8     'h7                                                 
#   arburst                      integral         2     'h1                                                 
#   rready                       integral         1     'h0                                                 
#   rvalid                       integral         1     'h0                                                 
#   rdata                        integral         128   'h0                                                 
#   rid                          integral         6     'h0                                                 
#   rlast                        integral         1     'h0                                                 
#   rresp                        integral         2     'h0                                                 
#   begin_time                   time             64    505000                                              
#   depth                        int              32    'd2                                                 
#   parent sequence (name)       string           9     a_ar_seqc                                           
#   parent sequence (full name)  string           52    uvm_test_top.env_h.axi_s_agt.ar_agt.seqr_h.a_ar_seqc
#   sequencer                    string           42    uvm_test_top.env_h.axi_s_agt.ar_agt.seqr_h          
# ----------------------------------------------------------------------------------------------------------
# 
# UVM_INFO D:/AMBA/AXI4_new/sim/../src/sb/axi_mem_model.sv(28) @ 555000: uvm_test_top.env_h.mem_h [axi_mem_model] Pushed to write_queue[AWID:4]. Queue Size: 1
# Transaction Details:
# ----------------------------------------
# Name       Type             Size  Value 
# ----------------------------------------
# req        axi_slave_trans  -     @2220 
#   awready  integral         1     'h0   
#   awvalid  integral         1     'h1   
#   awsize   integral         3     'h4   
#   awburst  integral         2     'h1   
#   awlen    integral         8     'h5   
#   awstrb   integral         17    'h9f6f
#   awid     integral         6     'h4   
#   awaddr   integral         32    'h5b  
#   arready  integral         1     'h0   
#   arvalid  integral         1     'h0   
#   arid     integral         6     'h0   
#   araddr   integral         32    'h0   
#   arstrb   integral         17    'h0   
#   arsize   integral         3     'h0   
#   arlen    integral         8     'h0   
#   arburst  integral         2     'h0   
#   rready   integral         1     'h0   
#   rvalid   integral         1     'h0   
#   rdata    integral         128   'h0   
#   rid      integral         6     'h0   
#   rlast    integral         1     'h0   
#   rresp    integral         2     'h0   
# ----------------------------------------
# 
# UVM_INFO D:/AMBA/AXI4_new/sim/../src/sb/axi_mem_model.sv(34) @ 605000: uvm_test_top.env_h.mem_h [axi_mem_model] Pushed to read_queue[ARID:5]. Queue Size: 1
# Transaction Details:
# ----------------------------------------------------------------------------------------------------------
# Name                           Type             Size  Value                                               
# ----------------------------------------------------------------------------------------------------------
# req                            axi_slave_trans  -     @2248                                               
#   awready                      integral         1     'h0                                                 
#   awvalid                      integral         1     'h0                                                 
#   awsize                       integral         3     'h0                                                 
#   awburst                      integral         2     'h0                                                 
#   awlen                        integral         8     'h0                                                 
#   awstrb                       integral         17    'h0                                                 
#   awid                         integral         6     'h0                                                 
#   awaddr                       integral         32    'h0                                                 
#   arready                      integral         1     'h1                                                 
#   arvalid                      integral         1     'h1                                                 
#   arid                         integral         6     'h5                                                 
#   araddr                       integral         32    'h13                                                
#   arstrb                       integral         17    'h15cd0                                             
#   arsize                       integral         3     'h4                                                 
#   arlen                        integral         8     'h1                                                 
#   arburst                      integral         2     'h1                                                 
#   rready                       integral         1     'h0                                                 
#   rvalid                       integral         1     'h0                                                 
#   rdata                        integral         128   'h0                                                 
#   rid                          integral         6     'h0                                                 
#   rlast                        integral         1     'h0                                                 
#   rresp                        integral         2     'h0                                                 
#   begin_time                   time             64    535000                                              
#   depth                        int              32    'd2                                                 
#   parent sequence (name)       string           9     a_ar_seqc                                           
#   parent sequence (full name)  string           52    uvm_test_top.env_h.axi_s_agt.ar_agt.seqr_h.a_ar_seqc
#   sequencer                    string           42    uvm_test_top.env_h.axi_s_agt.ar_agt.seqr_h          
# ----------------------------------------------------------------------------------------------------------
# 
# UVM_INFO D:/AMBA/AXI4_new/sim/../src/sb/axi_mem_model.sv(28) @ 605000: uvm_test_top.env_h.mem_h [axi_mem_model] Pushed to write_queue[AWID:10]. Queue Size: 1
# Transaction Details:
# -----------------------------------------
# Name       Type             Size  Value  
# -----------------------------------------
# req        axi_slave_trans  -     @2268  
#   awready  integral         1     'h0    
#   awvalid  integral         1     'h1    
#   awsize   integral         3     'h4    
#   awburst  integral         2     'h1    
#   awlen    integral         8     'h1    
#   awstrb   integral         17    'h1bbca
#   awid     integral         6     'ha    
#   awaddr   integral         32    'h19   
#   arready  integral         1     'h0    
#   arvalid  integral         1     'h0    
#   arid     integral         6     'h0    
#   araddr   integral         32    'h0    
#   arstrb   integral         17    'h0    
#   arsize   integral         3     'h0    
#   arlen    integral         8     'h0    
#   arburst  integral         2     'h0    
#   rready   integral         1     'h0    
#   rvalid   integral         1     'h0    
#   rdata    integral         128   'h0    
#   rid      integral         6     'h0    
#   rlast    integral         1     'h0    
#   rresp    integral         2     'h0    
# -----------------------------------------
# 
# UVM_INFO D:/AMBA/AXI4_new/sim/../src/sb/axi_mem_model.sv(34) @ 645000: uvm_test_top.env_h.mem_h [axi_mem_model] Pushed to read_queue[ARID:10]. Queue Size: 1
# Transaction Details:
# ----------------------------------------------------------------------------------------------------------
# Name                           Type             Size  Value                                               
# ----------------------------------------------------------------------------------------------------------
# req                            axi_slave_trans  -     @2296                                               
#   awready                      integral         1     'h0                                                 
#   awvalid                      integral         1     'h0                                                 
#   awsize                       integral         3     'h0                                                 
#   awburst                      integral         2     'h0                                                 
#   awlen                        integral         8     'h0                                                 
#   awstrb                       integral         17    'h0                                                 
#   awid                         integral         6     'h0                                                 
#   awaddr                       integral         32    'h0                                                 
#   arready                      integral         1     'h1                                                 
#   arvalid                      integral         1     'h1                                                 
#   arid                         integral         6     'ha                                                 
#   araddr                       integral         32    'h97                                                
#   arstrb                       integral         17    'h1f4fa                                             
#   arsize                       integral         3     'h4                                                 
#   arlen                        integral         8     'h1                                                 
#   arburst                      integral         2     'h1                                                 
#   rready                       integral         1     'h0                                                 
#   rvalid                       integral         1     'h0                                                 
#   rdata                        integral         128   'h0                                                 
#   rid                          integral         6     'h0                                                 
#   rlast                        integral         1     'h0                                                 
#   rresp                        integral         2     'h0                                                 
#   begin_time                   time             64    615000                                              
#   depth                        int              32    'd2                                                 
#   parent sequence (name)       string           9     a_ar_seqc                                           
#   parent sequence (full name)  string           52    uvm_test_top.env_h.axi_s_agt.ar_agt.seqr_h.a_ar_seqc
#   sequencer                    string           42    uvm_test_top.env_h.axi_s_agt.ar_agt.seqr_h          
# ----------------------------------------------------------------------------------------------------------
# 
# UVM_INFO D:/AMBA/AXI4_new/sim/../src/sb/axi_mem_model.sv(28) @ 695000: uvm_test_top.env_h.mem_h [axi_mem_model] Pushed to write_queue[AWID:11]. Queue Size: 1
# Transaction Details:
# -----------------------------------------
# Name       Type             Size  Value  
# -----------------------------------------
# req        axi_slave_trans  -     @2292  
#   awready  integral         1     'h0    
#   awvalid  integral         1     'h1    
#   awsize   integral         3     'h4    
#   awburst  integral         2     'h1    
#   awlen    integral         8     'h2    
#   awstrb   integral         17    'h1c550
#   awid     integral         6     'hb    
#   awaddr   integral         32    'hc6   
#   arready  integral         1     'h0    
#   arvalid  integral         1     'h0    
#   arid     integral         6     'h0    
#   araddr   integral         32    'h0    
#   arstrb   integral         17    'h0    
#   arsize   integral         3     'h0    
#   arlen    integral         8     'h0    
#   arburst  integral         2     'h0    
#   rready   integral         1     'h0    
#   rvalid   integral         1     'h0    
#   rdata    integral         128   'h0    
#   rid      integral         6     'h0    
#   rlast    integral         1     'h0    
#   rresp    integral         2     'h0    
# -----------------------------------------
# 
# UVM_INFO D:/AMBA/AXI4_new/sim/../src/sb/axi_mem_model.sv(34) @ 725000: uvm_test_top.env_h.mem_h [axi_mem_model] Pushed to read_queue[ARID:10]. Queue Size: 2
# Transaction Details:
# ----------------------------------------------------------------------------------------------------------
# Name                           Type             Size  Value                                               
# ----------------------------------------------------------------------------------------------------------
# req                            axi_slave_trans  -     @2324                                               
#   awready                      integral         1     'h0                                                 
#   awvalid                      integral         1     'h0                                                 
#   awsize                       integral         3     'h0                                                 
#   awburst                      integral         2     'h0                                                 
#   awlen                        integral         8     'h0                                                 
#   awstrb                       integral         17    'h0                                                 
#   awid                         integral         6     'h0                                                 
#   awaddr                       integral         32    'h0                                                 
#   arready                      integral         1     'h1                                                 
#   arvalid                      integral         1     'h1                                                 
#   arid                         integral         6     'ha                                                 
#   araddr                       integral         32    'hb3                                                
#   arstrb                       integral         17    'h1e8b7                                             
#   arsize                       integral         3     'h4                                                 
#   arlen                        integral         8     'h1                                                 
#   arburst                      integral         2     'h1                                                 
#   rready                       integral         1     'h0                                                 
#   rvalid                       integral         1     'h0                                                 
#   rdata                        integral         128   'h0                                                 
#   rid                          integral         6     'h0                                                 
#   rlast                        integral         1     'h0                                                 
#   rresp                        integral         2     'h0                                                 
#   begin_time                   time             64    655000                                              
#   depth                        int              32    'd2                                                 
#   parent sequence (name)       string           9     a_ar_seqc                                           
#   parent sequence (full name)  string           52    uvm_test_top.env_h.axi_s_agt.ar_agt.seqr_h.a_ar_seqc
#   sequencer                    string           42    uvm_test_top.env_h.axi_s_agt.ar_agt.seqr_h          
# ----------------------------------------------------------------------------------------------------------
# 
# UVM_INFO D:/AMBA/AXI4_new/sim/../src/sb/axi_mem_model.sv(28) @ 755000: uvm_test_top.env_h.mem_h [axi_mem_model] Pushed to write_queue[AWID:7]. Queue Size: 2
# Transaction Details:
# ----------------------------------------
# Name       Type             Size  Value 
# ----------------------------------------
# req        axi_slave_trans  -     @2348 
#   awready  integral         1     'h0   
#   awvalid  integral         1     'h1   
#   awsize   integral         3     'h4   
#   awburst  integral         2     'h2   
#   awlen    integral         8     'h3   
#   awstrb   integral         17    'h681e
#   awid     integral         6     'h7   
#   awaddr   integral         32    'h6b  
#   arready  integral         1     'h0   
#   arvalid  integral         1     'h0   
#   arid     integral         6     'h0   
#   araddr   integral         32    'h0   
#   arstrb   integral         17    'h0   
#   arsize   integral         3     'h0   
#   arlen    integral         8     'h0   
#   arburst  integral         2     'h0   
#   rready   integral         1     'h0   
#   rvalid   integral         1     'h0   
#   rdata    integral         128   'h0   
#   rid      integral         6     'h0   
#   rlast    integral         1     'h0   
#   rresp    integral         2     'h0   
# ----------------------------------------
# 
# UVM_INFO D:/AMBA/AXI4_new/sim/../src/sb/axi_mem_model.sv(34) @ 785000: uvm_test_top.env_h.mem_h [axi_mem_model] Pushed to read_queue[ARID:8]. Queue Size: 1
# Transaction Details:
# ----------------------------------------------------------------------------------------------------------
# Name                           Type             Size  Value                                               
# ----------------------------------------------------------------------------------------------------------
# req                            axi_slave_trans  -     @2368                                               
#   awready                      integral         1     'h0                                                 
#   awvalid                      integral         1     'h0                                                 
#   awsize                       integral         3     'h0                                                 
#   awburst                      integral         2     'h0                                                 
#   awlen                        integral         8     'h0                                                 
#   awstrb                       integral         17    'h0                                                 
#   awid                         integral         6     'h0                                                 
#   awaddr                       integral         32    'h0                                                 
#   arready                      integral         1     'h1                                                 
#   arvalid                      integral         1     'h1                                                 
#   arid                         integral         6     'h8                                                 
#   araddr                       integral         32    'h28                                                
#   arstrb                       integral         17    'h1cb0                                              
#   arsize                       integral         3     'h4                                                 
#   arlen                        integral         8     'h7                                                 
#   arburst                      integral         2     'h1                                                 
#   rready                       integral         1     'h0                                                 
#   rvalid                       integral         1     'h0                                                 
#   rdata                        integral         128   'h0                                                 
#   rid                          integral         6     'h0                                                 
#   rlast                        integral         1     'h0                                                 
#   rresp                        integral         2     'h0                                                 
#   begin_time                   time             64    735000                                              
#   depth                        int              32    'd2                                                 
#   parent sequence (name)       string           9     a_ar_seqc                                           
#   parent sequence (full name)  string           52    uvm_test_top.env_h.axi_s_agt.ar_agt.seqr_h.a_ar_seqc
#   sequencer                    string           42    uvm_test_top.env_h.axi_s_agt.ar_agt.seqr_h          
# ----------------------------------------------------------------------------------------------------------
# 
# UVM_INFO D:/AMBA/AXI4_new/sim/../src/sb/axi_mem_model.sv(34) @ 815000: uvm_test_top.env_h.mem_h [axi_mem_model] Pushed to read_queue[ARID:7]. Queue Size: 1
# Transaction Details:
# ----------------------------------------------------------------------------------------------------------
# Name                           Type             Size  Value                                               
# ----------------------------------------------------------------------------------------------------------
# req                            axi_slave_trans  -     @2404                                               
#   awready                      integral         1     'h0                                                 
#   awvalid                      integral         1     'h0                                                 
#   awsize                       integral         3     'h0                                                 
#   awburst                      integral         2     'h0                                                 
#   awlen                        integral         8     'h0                                                 
#   awstrb                       integral         17    'h0                                                 
#   awid                         integral         6     'h0                                                 
#   awaddr                       integral         32    'h0                                                 
#   arready                      integral         1     'h1                                                 
#   arvalid                      integral         1     'h1                                                 
#   arid                         integral         6     'h7                                                 
#   araddr                       integral         32    'ha5                                                
#   arstrb                       integral         17    'h1bfc4                                             
#   arsize                       integral         3     'h4                                                 
#   arlen                        integral         8     'h7                                                 
#   arburst                      integral         2     'h1                                                 
#   rready                       integral         1     'h0                                                 
#   rvalid                       integral         1     'h0                                                 
#   rdata                        integral         128   'h0                                                 
#   rid                          integral         6     'h0                                                 
#   rlast                        integral         1     'h0                                                 
#   rresp                        integral         2     'h0                                                 
#   begin_time                   time             64    795000                                              
#   depth                        int              32    'd2                                                 
#   parent sequence (name)       string           9     a_ar_seqc                                           
#   parent sequence (full name)  string           52    uvm_test_top.env_h.axi_s_agt.ar_agt.seqr_h.a_ar_seqc
#   sequencer                    string           42    uvm_test_top.env_h.axi_s_agt.ar_agt.seqr_h          
# ----------------------------------------------------------------------------------------------------------
# 
# UVM_INFO D:/AMBA/AXI4_new/sim/../src/sb/axi_mem_model.sv(34) @ 835000: uvm_test_top.env_h.mem_h [axi_mem_model] Pushed to read_queue[ARID:7]. Queue Size: 2
# Transaction Details:
# ----------------------------------------------------------------------------------------------------------
# Name                           Type             Size  Value                                               
# ----------------------------------------------------------------------------------------------------------
# req                            axi_slave_trans  -     @2424                                               
#   awready                      integral         1     'h0                                                 
#   awvalid                      integral         1     'h0                                                 
#   awsize                       integral         3     'h0                                                 
#   awburst                      integral         2     'h0                                                 
#   awlen                        integral         8     'h0                                                 
#   awstrb                       integral         17    'h0                                                 
#   awid                         integral         6     'h0                                                 
#   awaddr                       integral         32    'h0                                                 
#   arready                      integral         1     'h1                                                 
#   arvalid                      integral         1     'h1                                                 
#   arid                         integral         6     'h7                                                 
#   araddr                       integral         32    'h71                                                
#   arstrb                       integral         17    'hd6a8                                              
#   arsize                       integral         3     'h4                                                 
#   arlen                        integral         8     'h9                                                 
#   arburst                      integral         2     'h1                                                 
#   rready                       integral         1     'h0                                                 
#   rvalid                       integral         1     'h0                                                 
#   rdata                        integral         128   'h0                                                 
#   rid                          integral         6     'h0                                                 
#   rlast                        integral         1     'h0                                                 
#   rresp                        integral         2     'h0                                                 
#   begin_time                   time             64    825000                                              
#   depth                        int              32    'd2                                                 
#   parent sequence (name)       string           9     a_ar_seqc                                           
#   parent sequence (full name)  string           52    uvm_test_top.env_h.axi_s_agt.ar_agt.seqr_h.a_ar_seqc
#   sequencer                    string           42    uvm_test_top.env_h.axi_s_agt.ar_agt.seqr_h          
# ----------------------------------------------------------------------------------------------------------
# 
# UVM_INFO D:/AMBA/AXI4_new/sim/../src/sb/axi_mem_model.sv(28) @ 835000: uvm_test_top.env_h.mem_h [axi_mem_model] Pushed to write_queue[AWID:6]. Queue Size: 2
# Transaction Details:
# -----------------------------------------
# Name       Type             Size  Value  
# -----------------------------------------
# req        axi_slave_trans  -     @2388  
#   awready  integral         1     'h0    
#   awvalid  integral         1     'h1    
#   awsize   integral         3     'h4    
#   awburst  integral         2     'h2    
#   awlen    integral         8     'h5    
#   awstrb   integral         17    'h13de8
#   awid     integral         6     'h6    
#   awaddr   integral         32    'h18   
#   arready  integral         1     'h0    
#   arvalid  integral         1     'h0    
#   arid     integral         6     'h0    
#   araddr   integral         32    'h0    
#   arstrb   integral         17    'h0    
#   arsize   integral         3     'h0    
#   arlen    integral         8     'h0    
#   arburst  integral         2     'h0    
#   rready   integral         1     'h0    
#   rvalid   integral         1     'h0    
#   rdata    integral         128   'h0    
#   rid      integral         6     'h0    
#   rlast    integral         1     'h0    
#   rresp    integral         2     'h0    
# -----------------------------------------
# 
# UVM_INFO D:/AMBA/AXI4_new/sim/../src/sb/axi_mem_model.sv(28) @ 865000: uvm_test_top.env_h.mem_h [axi_mem_model] Pushed to write_queue[AWID:10]. Queue Size: 2
# Transaction Details:
# -----------------------------------------
# Name       Type             Size  Value  
# -----------------------------------------
# req        axi_slave_trans  -     @2440  
#   awready  integral         1     'h0    
#   awvalid  integral         1     'h1    
#   awsize   integral         3     'h4    
#   awburst  integral         2     'h2    
#   awlen    integral         8     'h6    
#   awstrb   integral         17    'h16b66
#   awid     integral         6     'ha    
#   awaddr   integral         32    'hf8   
#   arready  integral         1     'h0    
#   arvalid  integral         1     'h0    
#   arid     integral         6     'h0    
#   araddr   integral         32    'h0    
#   arstrb   integral         17    'h0    
#   arsize   integral         3     'h0    
#   arlen    integral         8     'h0    
#   arburst  integral         2     'h0    
#   rready   integral         1     'h0    
#   rvalid   integral         1     'h0    
#   rdata    integral         128   'h0    
#   rid      integral         6     'h0    
#   rlast    integral         1     'h0    
#   rresp    integral         2     'h0    
# -----------------------------------------
# 
# UVM_INFO D:/AMBA/AXI4_new/sim/../src/sb/axi_mem_model.sv(34) @ 865000: uvm_test_top.env_h.mem_h [axi_mem_model] Pushed to read_queue[ARID:4]. Queue Size: 1
# Transaction Details:
# ----------------------------------------------------------------------------------------------------------
# Name                           Type             Size  Value                                               
# ----------------------------------------------------------------------------------------------------------
# req                            axi_slave_trans  -     @2444                                               
#   awready                      integral         1     'h0                                                 
#   awvalid                      integral         1     'h0                                                 
#   awsize                       integral         3     'h0                                                 
#   awburst                      integral         2     'h0                                                 
#   awlen                        integral         8     'h0                                                 
#   awstrb                       integral         17    'h0                                                 
#   awid                         integral         6     'h0                                                 
#   awaddr                       integral         32    'h0                                                 
#   arready                      integral         1     'h1                                                 
#   arvalid                      integral         1     'h1                                                 
#   arid                         integral         6     'h4                                                 
#   araddr                       integral         32    'h1b                                                
#   arstrb                       integral         17    'h6f9f                                              
#   arsize                       integral         3     'h4                                                 
#   arlen                        integral         8     'h3                                                 
#   arburst                      integral         2     'h1                                                 
#   rready                       integral         1     'h0                                                 
#   rvalid                       integral         1     'h0                                                 
#   rdata                        integral         128   'h0                                                 
#   rid                          integral         6     'h0                                                 
#   rlast                        integral         1     'h0                                                 
#   rresp                        integral         2     'h0                                                 
#   begin_time                   time             64    845000                                              
#   depth                        int              32    'd2                                                 
#   parent sequence (name)       string           9     a_ar_seqc                                           
#   parent sequence (full name)  string           52    uvm_test_top.env_h.axi_s_agt.ar_agt.seqr_h.a_ar_seqc
#   sequencer                    string           42    uvm_test_top.env_h.axi_s_agt.ar_agt.seqr_h          
# ----------------------------------------------------------------------------------------------------------
# 
# UVM_INFO D:/AMBA/AXI4_new/sim/../src/sb/axi_mem_model.sv(34) @ 905000: uvm_test_top.env_h.mem_h [axi_mem_model] Pushed to read_queue[ARID:10]. Queue Size: 3
# Transaction Details:
# ----------------------------------------------------------------------------------------------------------
# Name                           Type             Size  Value                                               
# ----------------------------------------------------------------------------------------------------------
# req                            axi_slave_trans  -     @2472                                               
#   awready                      integral         1     'h0                                                 
#   awvalid                      integral         1     'h0                                                 
#   awsize                       integral         3     'h0                                                 
#   awburst                      integral         2     'h0                                                 
#   awlen                        integral         8     'h0                                                 
#   awstrb                       integral         17    'h0                                                 
#   awid                         integral         6     'h0                                                 
#   awaddr                       integral         32    'h0                                                 
#   arready                      integral         1     'h1                                                 
#   arvalid                      integral         1     'h1                                                 
#   arid                         integral         6     'ha                                                 
#   araddr                       integral         32    'h53                                                
#   arstrb                       integral         17    'h1dc05                                             
#   arsize                       integral         3     'h4                                                 
#   arlen                        integral         8     'h7                                                 
#   arburst                      integral         2     'h1                                                 
#   rready                       integral         1     'h0                                                 
#   rvalid                       integral         1     'h0                                                 
#   rdata                        integral         128   'h0                                                 
#   rid                          integral         6     'h0                                                 
#   rlast                        integral         1     'h0                                                 
#   rresp                        integral         2     'h0                                                 
#   begin_time                   time             64    875000                                              
#   depth                        int              32    'd2                                                 
#   parent sequence (name)       string           9     a_ar_seqc                                           
#   parent sequence (full name)  string           52    uvm_test_top.env_h.axi_s_agt.ar_agt.seqr_h.a_ar_seqc
#   sequencer                    string           42    uvm_test_top.env_h.axi_s_agt.ar_agt.seqr_h          
# ----------------------------------------------------------------------------------------------------------
# 
# UVM_INFO D:/AMBA/AXI4_new/sim/../src/sb/axi_mem_model.sv(34) @ 945000: uvm_test_top.env_h.mem_h [axi_mem_model] Pushed to read_queue[ARID:15]. Queue Size: 1
# Transaction Details:
# ----------------------------------------------------------------------------------------------------------
# Name                           Type             Size  Value                                               
# ----------------------------------------------------------------------------------------------------------
# req                            axi_slave_trans  -     @2496                                               
#   awready                      integral         1     'h0                                                 
#   awvalid                      integral         1     'h0                                                 
#   awsize                       integral         3     'h0                                                 
#   awburst                      integral         2     'h0                                                 
#   awlen                        integral         8     'h0                                                 
#   awstrb                       integral         17    'h0                                                 
#   awid                         integral         6     'h0                                                 
#   awaddr                       integral         32    'h0                                                 
#   arready                      integral         1     'h1                                                 
#   arvalid                      integral         1     'h1                                                 
#   arid                         integral         6     'hf                                                 
#   araddr                       integral         32    'h7f                                                
#   arstrb                       integral         17    'h1246                                              
#   arsize                       integral         3     'h4                                                 
#   arlen                        integral         8     'h0                                                 
#   arburst                      integral         2     'h1                                                 
#   rready                       integral         1     'h0                                                 
#   rvalid                       integral         1     'h0                                                 
#   rdata                        integral         128   'h0                                                 
#   rid                          integral         6     'h0                                                 
#   rlast                        integral         1     'h0                                                 
#   rresp                        integral         2     'h0                                                 
#   begin_time                   time             64    915000                                              
#   depth                        int              32    'd2                                                 
#   parent sequence (name)       string           9     a_ar_seqc                                           
#   parent sequence (full name)  string           52    uvm_test_top.env_h.axi_s_agt.ar_agt.seqr_h.a_ar_seqc
#   sequencer                    string           42    uvm_test_top.env_h.axi_s_agt.ar_agt.seqr_h          
# ----------------------------------------------------------------------------------------------------------
# 
# UVM_INFO D:/AMBA/AXI4_new/sim/../src/sb/axi_mem_model.sv(28) @ 965000: uvm_test_top.env_h.mem_h [axi_mem_model] Pushed to write_queue[AWID:15]. Queue Size: 2
# Transaction Details:
# ----------------------------------------
# Name       Type             Size  Value 
# ----------------------------------------
# req        axi_slave_trans  -     @2468 
#   awready  integral         1     'h0   
#   awvalid  integral         1     'h1   
#   awsize   integral         3     'h4   
#   awburst  integral         2     'h1   
#   awlen    integral         8     'h0   
#   awstrb   integral         17    'h39db
#   awid     integral         6     'hf   
#   awaddr   integral         32    'ha8  
#   arready  integral         1     'h0   
#   arvalid  integral         1     'h0   
#   arid     integral         6     'h0   
#   araddr   integral         32    'h0   
#   arstrb   integral         17    'h0   
#   arsize   integral         3     'h0   
#   arlen    integral         8     'h0   
#   arburst  integral         2     'h0   
#   rready   integral         1     'h0   
#   rvalid   integral         1     'h0   
#   rdata    integral         128   'h0   
#   rid      integral         6     'h0   
#   rlast    integral         1     'h0   
#   rresp    integral         2     'h0   
# ----------------------------------------
# 
# UVM_INFO D:/AMBA/AXI4_new/sim/../src/sb/axi_mem_model.sv(34) @ 1005000: uvm_test_top.env_h.mem_h [axi_mem_model] Pushed to read_queue[ARID:14]. Queue Size: 1
# Transaction Details:
# ----------------------------------------------------------------------------------------------------------
# Name                           Type             Size  Value                                               
# ----------------------------------------------------------------------------------------------------------
# req                            axi_slave_trans  -     @2516                                               
#   awready                      integral         1     'h0                                                 
#   awvalid                      integral         1     'h0                                                 
#   awsize                       integral         3     'h0                                                 
#   awburst                      integral         2     'h0                                                 
#   awlen                        integral         8     'h0                                                 
#   awstrb                       integral         17    'h0                                                 
#   awid                         integral         6     'h0                                                 
#   awaddr                       integral         32    'h0                                                 
#   arready                      integral         1     'h1                                                 
#   arvalid                      integral         1     'h1                                                 
#   arid                         integral         6     'he                                                 
#   araddr                       integral         32    'h95                                                
#   arstrb                       integral         17    'h15651                                             
#   arsize                       integral         3     'h4                                                 
#   arlen                        integral         8     'h2                                                 
#   arburst                      integral         2     'h1                                                 
#   rready                       integral         1     'h0                                                 
#   rvalid                       integral         1     'h0                                                 
#   rdata                        integral         128   'h0                                                 
#   rid                          integral         6     'h0                                                 
#   rlast                        integral         1     'h0                                                 
#   rresp                        integral         2     'h0                                                 
#   begin_time                   time             64    955000                                              
#   depth                        int              32    'd2                                                 
#   parent sequence (name)       string           9     a_ar_seqc                                           
#   parent sequence (full name)  string           52    uvm_test_top.env_h.axi_s_agt.ar_agt.seqr_h.a_ar_seqc
#   sequencer                    string           42    uvm_test_top.env_h.axi_s_agt.ar_agt.seqr_h          
# ----------------------------------------------------------------------------------------------------------
# 
# UVM_INFO D:/AMBA/AXI4_new/sim/../src/sb/axi_mem_model.sv(28) @ 1015000: uvm_test_top.env_h.mem_h [axi_mem_model] Pushed to write_queue[AWID:14]. Queue Size: 1
# Transaction Details:
# -----------------------------------------
# Name       Type             Size  Value  
# -----------------------------------------
# req        axi_slave_trans  -     @2532  
#   awready  integral         1     'h0    
#   awvalid  integral         1     'h1    
#   awsize   integral         3     'h4    
#   awburst  integral         2     'h1    
#   awlen    integral         8     'h8    
#   awstrb   integral         17    'h1e78c
#   awid     integral         6     'he    
#   awaddr   integral         32    'h3a   
#   arready  integral         1     'h0    
#   arvalid  integral         1     'h0    
#   arid     integral         6     'h0    
#   araddr   integral         32    'h0    
#   arstrb   integral         17    'h0    
#   arsize   integral         3     'h0    
#   arlen    integral         8     'h0    
#   arburst  integral         2     'h0    
#   rready   integral         1     'h0    
#   rvalid   integral         1     'h0    
#   rdata    integral         128   'h0    
#   rid      integral         6     'h0    
#   rlast    integral         1     'h0    
#   rresp    integral         2     'h0    
# -----------------------------------------
# 
# UVM_INFO D:/AMBA/AXI4_new/sim/../src/sb/axi_mem_model.sv(28) @ 1035000: uvm_test_top.env_h.mem_h [axi_mem_model] Pushed to write_queue[AWID:4]. Queue Size: 2
# Transaction Details:
# -----------------------------------------
# Name       Type             Size  Value  
# -----------------------------------------
# req        axi_slave_trans  -     @2564  
#   awready  integral         1     'h0    
#   awvalid  integral         1     'h1    
#   awsize   integral         3     'h4    
#   awburst  integral         2     'h1    
#   awlen    integral         8     'h8    
#   awstrb   integral         17    'h16a23
#   awid     integral         6     'h4    
#   awaddr   integral         32    'h44   
#   arready  integral         1     'h0    
#   arvalid  integral         1     'h0    
#   arid     integral         6     'h0    
#   araddr   integral         32    'h0    
#   arstrb   integral         17    'h0    
#   arsize   integral         3     'h0    
#   arlen    integral         8     'h0    
#   arburst  integral         2     'h0    
#   rready   integral         1     'h0    
#   rvalid   integral         1     'h0    
#   rdata    integral         128   'h0    
#   rid      integral         6     'h0    
#   rlast    integral         1     'h0    
#   rresp    integral         2     'h0    
# -----------------------------------------
# 
# UVM_INFO D:/AMBA/AXI4_new/sim/../src/sb/axi_mem_model.sv(34) @ 1105000: uvm_test_top.env_h.mem_h [axi_mem_model] Pushed to read_queue[ARID:6]. Queue Size: 1
# Transaction Details:
# ----------------------------------------------------------------------------------------------------------
# Name                           Type             Size  Value                                               
# ----------------------------------------------------------------------------------------------------------
# req                            axi_slave_trans  -     @2556                                               
#   awready                      integral         1     'h0                                                 
#   awvalid                      integral         1     'h0                                                 
#   awsize                       integral         3     'h0                                                 
#   awburst                      integral         2     'h0                                                 
#   awlen                        integral         8     'h0                                                 
#   awstrb                       integral         17    'h0                                                 
#   awid                         integral         6     'h0                                                 
#   awaddr                       integral         32    'h0                                                 
