# vsim -c -voptargs="+acc" -do "log -r /*; run -all; quit;" work.axi_tb_top "+UVM_TESTNAME=axi_smoke_test" "+UVM_VERBOSITY=UVM_HIGH" -sv_seed random -l questa_sim.log 
# Start time: 00:16:33 on Jun 29,2026
# ** Note: (vsim-3813) Design is being optimized due to module recompilation...
# ** Warning: D:/AMBA/AXI4_new/sim/../src/sequences/master_sequences/axi_master_seqc_base.sv(61): (vopt-2239) Treating stand-alone use of presumed external function as an implicit VOID cast.
# ** Warning: D:/AMBA/AXI4_new/sim/../src/sequences/master_sequences/axi_master_seqc_base.sv(103): (vopt-2239) Treating stand-alone use of presumed external function as an implicit VOID cast.
# ** Warning: D:/AMBA/AXI4_new/sim/../src/sequences/master_sequences/axi_master_seqc_base.sv(120): (vopt-2239) Treating stand-alone use of presumed external function as an implicit VOID cast.
# //  Questa Sim-64
# //  Version 10.7c win64 Aug 18 2018
# //
# //  Copyright 1991-2018 Mentor Graphics Corporation
# //  All Rights Reserved.
# //
# //  QuestaSim and its associated documentation contain trade
# //  secrets and commercial or financial information that are the property of
# //  Mentor Graphics Corporation and are privileged, confidential,
# //  and exempt from disclosure under the Freedom of Information Act,
# //  5 U.S.C. Section 552. Furthermore, this information
# //  is prohibited from disclosure under the Trade Secrets Act,
# //  18 U.S.C. Section 1905.
# //
# Loading sv_std.std
# Loading work.axi_master_if(fast)
# Loading work.axi_slave_if(fast)
# Loading mtiUvm.uvm_pkg
# Loading work.axi_pkg(fast)
# Loading work.axi_tb_top(fast)
# Loading work.axi_master_if(fast)
# Loading work.axi_slave_if(fast)
# Loading mtiUvm.questa_uvm_pkg(fast)
# Loading C:/questasim64_10.7c/uvm-1.1d\win64\uvm_dpi.dll
# Sv_Seed = 1559075618
# log -r /*
#  run -all
# ----------------------------------------------------------------
# UVM-1.1d
# (C) 2007-2013 Mentor Graphics Corporation
# (C) 2007-2013 Cadence Design Systems, Inc.
# (C) 2006-2013 Synopsys, Inc.
# (C) 2011-2013 Cypress Semiconductor Corp.
# ----------------------------------------------------------------
# 
#   ***********       IMPORTANT RELEASE NOTES         ************
# 
#   You are using a version of the UVM library that has been compiled
#   with `UVM_NO_DEPRECATED undefined.
#   See http://www.eda.org/svdb/view.php?id=3313 for more details.
# 
#   You are using a version of the UVM library that has been compiled
#   with `UVM_OBJECT_MUST_HAVE_CONSTRUCTOR undefined.
#   See http://www.eda.org/svdb/view.php?id=3770 for more details.
# 
#       (Specify +UVM_NO_RELNOTES to turn off this notice)
# 
# UVM_INFO verilog_src/questa_uvm_pkg-1.2/src/questa_uvm_pkg.sv(215) @ 0: reporter [Questa UVM] QUESTA_UVM-1.2.3
# UVM_INFO verilog_src/questa_uvm_pkg-1.2/src/questa_uvm_pkg.sv(216) @ 0: reporter [Questa UVM]  questa_uvm::init(+struct)
# UVM_INFO @ 0: reporter [RNTST] Running test axi_smoke_test...
# UVM_INFO @ 0: reporter [UVMTOP] UVM testbench topology:
# ------------------------------------------------------------------
# Name                         Type                      Size  Value
# ------------------------------------------------------------------
# uvm_test_top                 axi_smoke_test            -     @477 
#   env_h                      axi_env                   -     @484 
#     axi_m_agt                axi_master_agent_top      -     @491 
#       ar_channel_agt         axi_ar_channel_m_agent    -     @640 
#         drv_h                axi_ar_channel_m_drv      -     @655 
#           rsp_port           uvm_analysis_port         -     @670 
#           seq_item_port      uvm_seq_item_pull_port    -     @662 
#         seqr_h               uvm_sequencer             -     @678 
#           rsp_export         uvm_analysis_export       -     @685 
#           seq_item_export    uvm_seq_item_pull_imp     -     @779 
#           arbitration_queue  array                     0     -    
#           lock_queue         array                     0     -    
#           num_last_reqs      integral                  32    'd1  
#           num_last_rsps      integral                  32    'd1  
#       aw_agt                 axi_aw_channel_m_agt      -     @626 
#         drv_h                axi_aw_channel_m_drv      -     @903 
#           rsp_port           uvm_analysis_port         -     @918 
#           seq_item_port      uvm_seq_item_pull_port    -     @910 
#         seqr_h               uvm_sequencer             -     @794 
#           rsp_export         uvm_analysis_export       -     @801 
#           seq_item_export    uvm_seq_item_pull_imp     -     @895 
#           arbitration_queue  array                     0     -    
#           lock_queue         array                     0     -    
#           num_last_reqs      integral                  32    'd1  
#           num_last_rsps      integral                  32    'd1  
#       r_agt                  axi_r_channel_m_agt       -     @647 
#         drv_h                axi_r_channel_m_drv       -     @1042
#           rsp_port           uvm_analysis_port         -     @1057
#           seq_item_port      uvm_seq_item_pull_port    -     @1049
#         seqr_h               uvm_sequencer             -     @933 
#           rsp_export         uvm_analysis_export       -     @940 
#           seq_item_export    uvm_seq_item_pull_imp     -     @1034
#           arbitration_queue  array                     0     -    
#           lock_queue         array                     0     -    
#           num_last_reqs      integral                  32    'd1  
#           num_last_rsps      integral                  32    'd1  
#       w_agt                  axi_w_channel_m_agt       -     @633 
#         drv_h                axi_w_channel_m_drv       -     @1182
#           rsp_port           uvm_analysis_port         -     @1197
#           seq_item_port      uvm_seq_item_pull_port    -     @1189
#         seqr_h               uvm_sequencer             -     @1073
#           rsp_export         uvm_analysis_export       -     @1080
#           seq_item_export    uvm_seq_item_pull_imp     -     @1174
#           arbitration_queue  array                     0     -    
#           lock_queue         array                     0     -    
#           num_last_reqs      integral                  32    'd1  
#           num_last_rsps      integral                  32    'd1  
#     axi_s_agt                axi_slave_agt_top         -     @498 
#       ar_agt                 axi_slave_ar_channel_agt  -     @1242
#         drv_h                axi_slave_ar_channel_drv  -     @1366
#           rsp_port           uvm_analysis_port         -     @1381
#           seq_item_port      uvm_seq_item_pull_port    -     @1373
#         seqr_h               uvm_sequencer             -     @1257
#           rsp_export         uvm_analysis_export       -     @1264
#           seq_item_export    uvm_seq_item_pull_imp     -     @1358
#           arbitration_queue  array                     0     -    
#           lock_queue         array                     0     -    
#           num_last_reqs      integral                  32    'd1  
#           num_last_rsps      integral                  32    'd1  
#       aw_agt                 axi_aw_channel_s_agt      -     @1212
#         drv_h                axi_aw_channel_s_drv      -     @1504
#           rsp_port           uvm_analysis_port         -     @1519
#           seq_item_port      uvm_seq_item_pull_port    -     @1511
#         rsp_port             uvm_analysis_port         -     @1227
#         seq_item_port        uvm_seq_item_pull_port    -     @1219
#         seqr_h               uvm_sequencer             -     @1395
#           rsp_export         uvm_analysis_export       -     @1402
#           seq_item_export    uvm_seq_item_pull_imp     -     @1496
#           arbitration_queue  array                     0     -    
#           lock_queue         array                     0     -    
#           num_last_reqs      integral                  32    'd1  
#           num_last_rsps      integral                  32    'd1  
#       r_agt                  axi_r_channel_s_agt       -     @1249
#         drv_h                axi_r_channel_s_drv       -     @1644
#           rsp_port           uvm_analysis_port         -     @1659
#           seq_item_port      uvm_seq_item_pull_port    -     @1651
#         seqr_h               uvm_sequencer             -     @1535
#           rsp_export         uvm_analysis_export       -     @1542
#           seq_item_export    uvm_seq_item_pull_imp     -     @1636
#           arbitration_queue  array                     0     -    
#           lock_queue         array                     0     -    
#           num_last_reqs      integral                  32    'd1  
#           num_last_rsps      integral                  32    'd1  
#       w_agt                  axi_w_channel_s_agt       -     @1235
#         drv_h                axi_w_channel_s_drv       -     @1784
#           rsp_port           uvm_analysis_port         -     @1799
#           seq_item_port      uvm_seq_item_pull_port    -     @1791
#         seqr_h               uvm_sequencer             -     @1675
#           rsp_export         uvm_analysis_export       -     @1682
#           seq_item_export    uvm_seq_item_pull_imp     -     @1776
#           arbitration_queue  array                     0     -    
#           lock_queue         array                     0     -    
#           num_last_reqs      integral                  32    'd1  
#           num_last_rsps      integral                  32    'd1  
#     m_vseqr                  axi_m_vsequencer          -     @512 
#       rsp_export             uvm_analysis_export       -     @519 
#       seq_item_export        uvm_seq_item_pull_imp     -     @613 
#       arbitration_queue      array                     0     -    
#       lock_queue             array                     0     -    
#       num_last_reqs          integral                  32    'd1  
#       num_last_rsps          integral                  32    'd1  
#     mem_h                    axi_mem_model             -     @505 
# ------------------------------------------------------------------
# 
# UVM_INFO verilog_src/questa_uvm_pkg-1.2/src/questa_uvm_pkg.sv(277) @ 0: reporter [Questa UVM] End Of Elaboration
# UVM_INFO D:/AMBA/AXI4_new/sim/../src/slave/drivers/r_channel/axi_r_channel_s_drv.sv(40) @ 0: uvm_test_top.env_h.axi_s_agt.r_agt.drv_h [axi_r_channel_s_drv] starting_main_phase
# UVM_INFO D:/AMBA/AXI4_new/sim/../src/sequences/master_sequences/axi_master_seqc_base.sv(46) @ 0: uvm_test_top.env_h.axi_m_agt.aw_agt.seqr_h@@aw_seqc [axi_m_aw_channel_seqc] Base_Body_seqcs_start's
# UVM_INFO D:/AMBA/AXI4_new/sim/../src/sequences/master_sequences/axi_master_seqc_base.sv(46) @ 0: uvm_test_top.env_h.axi_m_agt.w_agt.seqr_h@@w_seqc [axi_m_w_channel_seqc] Base_Body_seqcs_start's
# UVM_INFO D:/AMBA/AXI4_new/sim/../src/sequences/master_sequences/axi_master_seqc_base.sv(75) @ 0: uvm_test_top.env_h.axi_m_agt.w_agt.seqr_h@@w_seqc [axi_m_w_channel_seqc] lawlen:4
# UVM_INFO D:/AMBA/AXI4_new/sim/../src/sb/axi_mem_model.sv(30) @ 95000: uvm_test_top.env_h.mem_h [axi_mem_model] Pushed to write_queue[AWID:4]. Queue Size: 1
# Transaction Details:
# ----------------------------------------
# Name       Type             Size  Value 
# ----------------------------------------
# req        axi_slave_trans  -     @2093 
#   awready  integral         1     'h0   
#   awvalid  integral         1     'h1   
#   awsize   integral         3     'h4   
#   awburst  integral         2     'h1   
#   awlen    integral         8     'h4   
#   awstrb   integral         17    'h65e3
#   awid     integral         6     'h4   
#   awaddr   integral         32    'h88  
#   wdata    integral         128   'h0   
#   wlast    integral         1     'h0   
#   wdata    integral         128   'h0   
#   wstrb    integral         17    'h0   
#   wready   integral         1     'h0   
#   wvalid   integral         1     'h0   
#   arready  integral         1     'h0   
#   arvalid  integral         1     'h0   
#   arid     integral         6     'h0   
#   araddr   integral         32    'h0   
#   arstrb   integral         17    'h0   
#   arsize   integral         3     'h0   
#   arlen    integral         8     'h0   
#   arburst  integral         2     'h0   
#   rready   integral         1     'h0   
#   rvalid   integral         1     'h0   
#   rdata    integral         128   'h0   
#   rid      integral         6     'h0   
#   rlast    integral         1     'h0   
#   rresp    integral         2     'h0   
# ----------------------------------------
# 
# UVM_INFO D:/AMBA/AXI4_new/sim/../src/sb/axi_mem_model.sv(104) @ 95000: uvm_test_top.env_h.mem_h [axi_mem_model] write_data_of_each_transaction::
# UVM_INFO D:/AMBA/AXI4_new/sim/../src/sb/axi_mem_model.sv(111) @ 95000: uvm_test_top.env_h.mem_h [axi_mem_model] write_excute_complete_successfully
# UVM_INFO D:/AMBA/AXI4_new/sim/../src/sequences/master_sequences/axi_master_seqc_base.sv(46) @ 105000: uvm_test_top.env_h.axi_m_agt.aw_agt.seqr_h@@aw_seqc [axi_m_aw_channel_seqc] Base_Body_seqcs_start's
# UVM_INFO D:/AMBA/AXI4_new/sim/../src/sb/axi_mem_model.sv(30) @ 195000: uvm_test_top.env_h.mem_h [axi_mem_model] Pushed to write_queue[AWID:7]. Queue Size: 1
# Transaction Details:
# -----------------------------------------
# Name       Type             Size  Value  
# -----------------------------------------
# req        axi_slave_trans  -     @2097  
#   awready  integral         1     'h0    
#   awvalid  integral         1     'h1    
#   awsize   integral         3     'h4    
#   awburst  integral         2     'h1    
#   awlen    integral         8     'h4    
#   awstrb   integral         17    'h1c6ff
#   awid     integral         6     'h7    
#   awaddr   integral         32    'h88   
#   wdata    integral         128   'h0    
#   wlast    integral         1     'h0    
#   wdata    integral         128   'h0    
#   wstrb    integral         17    'h0    
#   wready   integral         1     'h0    
#   wvalid   integral         1     'h0    
#   arready  integral         1     'h0    
#   arvalid  integral         1     'h0    
#   arid     integral         6     'h0    
#   araddr   integral         32    'h0    
#   arstrb   integral         17    'h0    
#   arsize   integral         3     'h0    
#   arlen    integral         8     'h0    
#   arburst  integral         2     'h0    
#   rready   integral         1     'h0    
#   rvalid   integral         1     'h0    
#   rdata    integral         128   'h0    
#   rid      integral         6     'h0    
#   rlast    integral         1     'h0    
#   rresp    integral         2     'h0    
# -----------------------------------------
# 
# UVM_INFO D:/AMBA/AXI4_new/sim/../src/sb/axi_mem_model.sv(104) @ 195000: uvm_test_top.env_h.mem_h [axi_mem_model] write_data_of_each_transaction::
# UVM_INFO D:/AMBA/AXI4_new/sim/../src/sb/axi_mem_model.sv(111) @ 195000: uvm_test_top.env_h.mem_h [axi_mem_model] write_excute_complete_successfully
# UVM_INFO D:/AMBA/AXI4_new/sim/../src/sequences/master_sequences/axi_master_seqc_base.sv(46) @ 205000: uvm_test_top.env_h.axi_m_agt.aw_agt.seqr_h@@aw_seqc [axi_m_aw_channel_seqc] Base_Body_seqcs_start's
# UVM_INFO D:/AMBA/AXI4_new/sim/../src/sb/axi_mem_model.sv(30) @ 315000: uvm_test_top.env_h.mem_h [axi_mem_model] Pushed to write_queue[AWID:11]. Queue Size: 1
# Transaction Details:
# -----------------------------------------
# Name       Type             Size  Value  
# -----------------------------------------
# req        axi_slave_trans  -     @2111  
#   awready  integral         1     'h0    
#   awvalid  integral         1     'h1    
#   awsize   integral         3     'h4    
#   awburst  integral         2     'h1    
#   awlen    integral         8     'h4    
#   awstrb   integral         17    'h180e3
#   awid     integral         6     'hb    
#   awaddr   integral         32    'h88   
#   wdata    integral         128   'h0    
#   wlast    integral         1     'h0    
#   wdata    integral         128   'h0    
#   wstrb    integral         17    'h0    
#   wready   integral         1     'h0    
#   wvalid   integral         1     'h0    
#   arready  integral         1     'h0    
#   arvalid  integral         1     'h0    
#   arid     integral         6     'h0    
#   araddr   integral         32    'h0    
#   arstrb   integral         17    'h0    
#   arsize   integral         3     'h0    
#   arlen    integral         8     'h0    
#   arburst  integral         2     'h0    
#   rready   integral         1     'h0    
#   rvalid   integral         1     'h0    
#   rdata    integral         128   'h0    
#   rid      integral         6     'h0    
#   rlast    integral         1     'h0    
#   rresp    integral         2     'h0    
# -----------------------------------------
# 
# UVM_INFO D:/AMBA/AXI4_new/sim/../src/sb/axi_mem_model.sv(104) @ 315000: uvm_test_top.env_h.mem_h [axi_mem_model] write_data_of_each_transaction::
# UVM_INFO D:/AMBA/AXI4_new/sim/../src/sb/axi_mem_model.sv(111) @ 315000: uvm_test_top.env_h.mem_h [axi_mem_model] write_excute_complete_successfully
# UVM_INFO D:/AMBA/AXI4_new/sim/../src/sequences/master_sequences/axi_master_seqc_base.sv(46) @ 325000: uvm_test_top.env_h.axi_m_agt.aw_agt.seqr_h@@aw_seqc [axi_m_aw_channel_seqc] Base_Body_seqcs_start's
# UVM_INFO D:/AMBA/AXI4_new/sim/../src/sb/axi_mem_model.sv(30) @ 425000: uvm_test_top.env_h.mem_h [axi_mem_model] Pushed to write_queue[AWID:9]. Queue Size: 1
# Transaction Details:
# ----------------------------------------
# Name       Type             Size  Value 
# ----------------------------------------
# req        axi_slave_trans  -     @2123 
#   awready  integral         1     'h0   
#   awvalid  integral         1     'h1   
#   awsize   integral         3     'h4   
#   awburst  integral         2     'h1   
#   awlen    integral         8     'h4   
#   awstrb   integral         17    'h36ec
#   awid     integral         6     'h9   
#   awaddr   integral         32    'h88  
#   wdata    integral         128   'h0   
#   wlast    integral         1     'h0   
#   wdata    integral         128   'h0   
#   wstrb    integral         17    'h0   
#   wready   integral         1     'h0   
#   wvalid   integral         1     'h0   
#   arready  integral         1     'h0   
#   arvalid  integral         1     'h0   
#   arid     integral         6     'h0   
#   araddr   integral         32    'h0   
#   arstrb   integral         17    'h0   
#   arsize   integral         3     'h0   
#   arlen    integral         8     'h0   
#   arburst  integral         2     'h0   
#   rready   integral         1     'h0   
#   rvalid   integral         1     'h0   
#   rdata    integral         128   'h0   
#   rid      integral         6     'h0   
#   rlast    integral         1     'h0   
#   rresp    integral         2     'h0   
# ----------------------------------------
# 
# UVM_INFO D:/AMBA/AXI4_new/sim/../src/sb/axi_mem_model.sv(104) @ 425000: uvm_test_top.env_h.mem_h [axi_mem_model] write_data_of_each_transaction::
# UVM_INFO D:/AMBA/AXI4_new/sim/../src/sb/axi_mem_model.sv(111) @ 425000: uvm_test_top.env_h.mem_h [axi_mem_model] write_excute_complete_successfully
# UVM_INFO D:/AMBA/AXI4_new/sim/../src/sequences/master_sequences/axi_master_seqc_base.sv(46) @ 435000: uvm_test_top.env_h.axi_m_agt.aw_agt.seqr_h@@aw_seqc [axi_m_aw_channel_seqc] Base_Body_seqcs_start's
# UVM_INFO D:/AMBA/AXI4_new/sim/../src/sequences/master_sequences/axi_master_seqc_base.sv(46) @ 465000: uvm_test_top.env_h.axi_m_agt.w_agt.seqr_h@@w_seqc [axi_m_w_channel_seqc] Base_Body_seqcs_start's
# UVM_INFO D:/AMBA/AXI4_new/sim/../src/sequences/master_sequences/axi_master_seqc_base.sv(75) @ 465000: uvm_test_top.env_h.axi_m_agt.w_agt.seqr_h@@w_seqc [axi_m_w_channel_seqc] lawlen:4
# UVM_INFO D:/AMBA/AXI4_new/sim/../src/sb/axi_mem_model.sv(30) @ 475000: uvm_test_top.env_h.mem_h [axi_mem_model] Pushed to write_queue[AWID:6]. Queue Size: 1
# Transaction Details:
# -----------------------------------------
# Name       Type             Size  Value  
# -----------------------------------------
# req        axi_slave_trans  -     @2139  
#   awready  integral         1     'h0    
#   awvalid  integral         1     'h1    
#   awsize   integral         3     'h4    
#   awburst  integral         2     'h1    
#   awlen    integral         8     'h4    
#   awstrb   integral         17    'h17881
#   awid     integral         6     'h6    
#   awaddr   integral         32    'h88   
#   wdata    integral         128   'h0    
#   wlast    integral         1     'h0    
#   wdata    integral         128   'h0    
#   wstrb    integral         17    'h0    
#   wready   integral         1     'h0    
#   wvalid   integral         1     'h0    
#   arready  integral         1     'h0    
#   arvalid  integral         1     'h0    
#   arid     integral         6     'h0    
#   araddr   integral         32    'h0    
#   arstrb   integral         17    'h0    
#   arsize   integral         3     'h0    
#   arlen    integral         8     'h0    
#   arburst  integral         2     'h0    
#   rready   integral         1     'h0    
#   rvalid   integral         1     'h0    
#   rdata    integral         128   'h0    
#   rid      integral         6     'h0    
#   rlast    integral         1     'h0    
#   rresp    integral         2     'h0    
# -----------------------------------------
# 
# UVM_INFO D:/AMBA/AXI4_new/sim/../src/sb/axi_mem_model.sv(104) @ 475000: uvm_test_top.env_h.mem_h [axi_mem_model] write_data_of_each_transaction::24 240 169 39 8
# UVM_INFO D:/AMBA/AXI4_new/sim/../src/sb/axi_mem_model.sv(111) @ 475000: uvm_test_top.env_h.mem_h [axi_mem_model] write_excute_complete_successfully
# UVM_INFO D:/AMBA/AXI4_new/sim/../src/sequences/master_sequences/axi_master_seqc_base.sv(46) @ 875000: uvm_test_top.env_h.axi_m_agt.w_agt.seqr_h@@w_seqc [axi_m_w_channel_seqc] Base_Body_seqcs_start's
# UVM_INFO D:/AMBA/AXI4_new/sim/../src/sequences/master_sequences/axi_master_seqc_base.sv(75) @ 875000: uvm_test_top.env_h.axi_m_agt.w_agt.seqr_h@@w_seqc [axi_m_w_channel_seqc] lawlen:4
# UVM_INFO D:/AMBA/AXI4_new/sim/../src/sequences/master_sequences/axi_master_seqc_base.sv(46) @ 1235000: uvm_test_top.env_h.axi_m_agt.w_agt.seqr_h@@w_seqc [axi_m_w_channel_seqc] Base_Body_seqcs_start's
# UVM_INFO D:/AMBA/AXI4_new/sim/../src/sequences/master_sequences/axi_master_seqc_base.sv(75) @ 1235000: uvm_test_top.env_h.axi_m_agt.w_agt.seqr_h@@w_seqc [axi_m_w_channel_seqc] lawlen:4
# UVM_INFO D:/AMBA/AXI4_new/sim/../src/sequences/master_sequences/axi_master_seqc_base.sv(46) @ 1565000: uvm_test_top.env_h.axi_m_agt.w_agt.seqr_h@@w_seqc [axi_m_w_channel_seqc] Base_Body_seqcs_start's
# UVM_INFO D:/AMBA/AXI4_new/sim/../src/sequences/master_sequences/axi_master_seqc_base.sv(75) @ 1565000: uvm_test_top.env_h.axi_m_agt.w_agt.seqr_h@@w_seqc [axi_m_w_channel_seqc] lawlen:4
# UVM_INFO D:/AMBA/AXI4_new/sim/../src/sequences/master_sequences/axi_master_seqc_base.sv(46) @ 1945000: uvm_test_top.env_h.axi_m_agt.aw_agt.seqr_h@@aw_seqc [axi_m_aw_channel_seqc] Base_Body_seqcs_start's
# UVM_INFO D:/AMBA/AXI4_new/sim/../src/sequences/master_sequences/axi_master_seqc_base.sv(46) @ 1945000: uvm_test_top.env_h.axi_m_agt.w_agt.seqr_h@@w_seqc [axi_m_w_channel_seqc] Base_Body_seqcs_start's
# UVM_INFO D:/AMBA/AXI4_new/sim/../src/sequences/master_sequences/axi_master_seqc_base.sv(75) @ 1945000: uvm_test_top.env_h.axi_m_agt.w_agt.seqr_h@@w_seqc [axi_m_w_channel_seqc] lawlen:0
# UVM_INFO D:/AMBA/AXI4_new/sim/../src/sb/axi_mem_model.sv(30) @ 1985000: uvm_test_top.env_h.mem_h [axi_mem_model] Pushed to write_queue[AWID:4]. Queue Size: 1
# Transaction Details:
# ----------------------------------------
# Name       Type             Size  Value 
# ----------------------------------------
# req        axi_slave_trans  -     @2151 
#   awready  integral         1     'h0   
#   awvalid  integral         1     'h1   
#   awsize   integral         3     'h4   
#   awburst  integral         2     'h2   
#   awlen    integral         8     'h0   
#   awstrb   integral         17    'hf800
#   awid     integral         6     'h4   
#   awaddr   integral         32    'hb7  
#   wdata    integral         128   'h0   
#   wlast    integral         1     'h0   
#   wdata    integral         128   'h0   
#   wstrb    integral         17    'h0   
#   wready   integral         1     'h0   
#   wvalid   integral         1     'h0   
#   arready  integral         1     'h0   
#   arvalid  integral         1     'h0   
#   arid     integral         6     'h0   
#   araddr   integral         32    'h0   
#   arstrb   integral         17    'h0   
#   arsize   integral         3     'h0   
#   arlen    integral         8     'h0   
#   arburst  integral         2     'h0   
#   rready   integral         1     'h0   
#   rvalid   integral         1     'h0   
#   rdata    integral         128   'h0   
#   rid      integral         6     'h0   
#   rlast    integral         1     'h0   
#   rresp    integral         2     'h0   
# ----------------------------------------
# 
# UVM_INFO D:/AMBA/AXI4_new/sim/../src/sb/axi_mem_model.sv(104) @ 1985000: uvm_test_top.env_h.mem_h [axi_mem_model] write_data_of_each_transaction::158 240 218 101 175
# UVM_INFO D:/AMBA/AXI4_new/sim/../src/sb/axi_mem_model.sv(111) @ 1985000: uvm_test_top.env_h.mem_h [axi_mem_model] write_excute_complete_successfully
# UVM_INFO D:/AMBA/AXI4_new/sim/../src/sequences/master_sequences/axi_master_seqc_base.sv(46) @ 1995000: uvm_test_top.env_h.axi_m_agt.aw_agt.seqr_h@@aw_seqc [axi_m_aw_channel_seqc] Base_Body_seqcs_start's
# UVM_INFO D:/AMBA/AXI4_new/sim/../src/sequences/master_sequences/axi_master_seqc_base.sv(46) @ 2045000: uvm_test_top.env_h.axi_m_agt.w_agt.seqr_h@@w_seqc [axi_m_w_channel_seqc] Base_Body_seqcs_start's
# UVM_INFO D:/AMBA/AXI4_new/sim/../src/sequences/master_sequences/axi_master_seqc_base.sv(75) @ 2045000: uvm_test_top.env_h.axi_m_agt.w_agt.seqr_h@@w_seqc [axi_m_w_channel_seqc] lawlen:0
# UVM_INFO D:/AMBA/AXI4_new/sim/../src/sb/axi_mem_model.sv(30) @ 2105000: uvm_test_top.env_h.mem_h [axi_mem_model] Pushed to write_queue[AWID:2]. Queue Size: 1
# Transaction Details:
# ----------------------------------------
# Name       Type             Size  Value 
# ----------------------------------------
# req        axi_slave_trans  -     @2247 
#   awready  integral         1     'h0   
#   awvalid  integral         1     'h1   
#   awsize   integral         3     'h4   
#   awburst  integral         2     'h2   
#   awlen    integral         8     'h0   
#   awstrb   integral         17    'h9d2d
#   awid     integral         6     'h2   
#   awaddr   integral         32    'hb7  
#   wdata    integral         128   'h0   
#   wlast    integral         1     'h0   
#   wdata    integral         128   'h0   
#   wstrb    integral         17    'h0   
#   wready   integral         1     'h0   
#   wvalid   integral         1     'h0   
#   arready  integral         1     'h0   
#   arvalid  integral         1     'h0   
#   arid     integral         6     'h0   
#   araddr   integral         32    'h0   
#   arstrb   integral         17    'h0   
#   arsize   integral         3     'h0   
#   arlen    integral         8     'h0   
#   arburst  integral         2     'h0   
#   rready   integral         1     'h0   
#   rvalid   integral         1     'h0   
#   rdata    integral         128   'h0   
#   rid      integral         6     'h0   
#   rlast    integral         1     'h0   
#   rresp    integral         2     'h0   
# ----------------------------------------
# 
# UVM_INFO D:/AMBA/AXI4_new/sim/../src/sb/axi_mem_model.sv(104) @ 2105000: uvm_test_top.env_h.mem_h [axi_mem_model] write_data_of_each_transaction::157
# UVM_INFO D:/AMBA/AXI4_new/sim/../src/sb/axi_mem_model.sv(111) @ 2105000: uvm_test_top.env_h.mem_h [axi_mem_model] write_excute_complete_successfully
# UVM_INFO D:/AMBA/AXI4_new/sim/../src/sequences/master_sequences/axi_master_seqc_base.sv(46) @ 2115000: uvm_test_top.env_h.axi_m_agt.aw_agt.seqr_h@@aw_seqc [axi_m_aw_channel_seqc] Base_Body_seqcs_start's
# UVM_INFO D:/AMBA/AXI4_new/sim/../src/sequences/master_sequences/axi_master_seqc_base.sv(46) @ 2135000: uvm_test_top.env_h.axi_m_agt.w_agt.seqr_h@@w_seqc [axi_m_w_channel_seqc] Base_Body_seqcs_start's
# UVM_INFO D:/AMBA/AXI4_new/sim/../src/sequences/master_sequences/axi_master_seqc_base.sv(75) @ 2135000: uvm_test_top.env_h.axi_m_agt.w_agt.seqr_h@@w_seqc [axi_m_w_channel_seqc] lawlen:0
# UVM_INFO D:/AMBA/AXI4_new/sim/../src/sb/axi_mem_model.sv(30) @ 2195000: uvm_test_top.env_h.mem_h [axi_mem_model] Pushed to write_queue[AWID:13]. Queue Size: 1
# Transaction Details:
# ----------------------------------------
# Name       Type             Size  Value 
# ----------------------------------------
# req        axi_slave_trans  -     @2259 
#   awready  integral         1     'h0   
#   awvalid  integral         1     'h1   
#   awsize   integral         3     'h4   
#   awburst  integral         2     'h2   
#   awlen    integral         8     'h0   
#   awstrb   integral         17    'h51e6
#   awid     integral         6     'hd   
#   awaddr   integral         32    'hb7  
#   wdata    integral         128   'h0   
#   wlast    integral         1     'h0   
#   wdata    integral         128   'h0   
#   wstrb    integral         17    'h0   
#   wready   integral         1     'h0   
#   wvalid   integral         1     'h0   
#   arready  integral         1     'h0   
#   arvalid  integral         1     'h0   
#   arid     integral         6     'h0   
#   araddr   integral         32    'h0   
#   arstrb   integral         17    'h0   
#   arsize   integral         3     'h0   
#   arlen    integral         8     'h0   
#   arburst  integral         2     'h0   
#   rready   integral         1     'h0   
#   rvalid   integral         1     'h0   
#   rdata    integral         128   'h0   
#   rid      integral         6     'h0   
#   rlast    integral         1     'h0   
#   rresp    integral         2     'h0   
# ----------------------------------------
# 
# UVM_INFO D:/AMBA/AXI4_new/sim/../src/sb/axi_mem_model.sv(104) @ 2195000: uvm_test_top.env_h.mem_h [axi_mem_model] write_data_of_each_transaction::196
# UVM_INFO D:/AMBA/AXI4_new/sim/../src/sb/axi_mem_model.sv(111) @ 2195000: uvm_test_top.env_h.mem_h [axi_mem_model] write_excute_complete_successfully
# UVM_INFO D:/AMBA/AXI4_new/sim/../src/sequences/master_sequences/axi_master_seqc_base.sv(46) @ 2205000: uvm_test_top.env_h.axi_m_agt.aw_agt.seqr_h@@aw_seqc [axi_m_aw_channel_seqc] Base_Body_seqcs_start's
# UVM_INFO D:/AMBA/AXI4_new/sim/../src/sequences/master_sequences/axi_master_seqc_base.sv(46) @ 2215000: uvm_test_top.env_h.axi_m_agt.w_agt.seqr_h@@w_seqc [axi_m_w_channel_seqc] Base_Body_seqcs_start's
# UVM_INFO D:/AMBA/AXI4_new/sim/../src/sequences/master_sequences/axi_master_seqc_base.sv(75) @ 2215000: uvm_test_top.env_h.axi_m_agt.w_agt.seqr_h@@w_seqc [axi_m_w_channel_seqc] lawlen:0
# UVM_INFO D:/AMBA/AXI4_new/sim/../src/sb/axi_mem_model.sv(30) @ 2265000: uvm_test_top.env_h.mem_h [axi_mem_model] Pushed to write_queue[AWID:15]. Queue Size: 1
# Transaction Details:
# -----------------------------------------
# Name       Type             Size  Value  
# -----------------------------------------
# req        axi_slave_trans  -     @2271  
#   awready  integral         1     'h0    
#   awvalid  integral         1     'h1    
#   awsize   integral         3     'h4    
#   awburst  integral         2     'h2    
#   awlen    integral         8     'h0    
#   awstrb   integral         17    'h1c1af
#   awid     integral         6     'hf    
#   awaddr   integral         32    'hb7   
#   wdata    integral         128   'h0    
#   wlast    integral         1     'h0    
#   wdata    integral         128   'h0    
#   wstrb    integral         17    'h0    
#   wready   integral         1     'h0    
#   wvalid   integral         1     'h0    
#   arready  integral         1     'h0    
#   arvalid  integral         1     'h0    
#   arid     integral         6     'h0    
#   araddr   integral         32    'h0    
#   arstrb   integral         17    'h0    
#   arsize   integral         3     'h0    
#   arlen    integral         8     'h0    
#   arburst  integral         2     'h0    
#   rready   integral         1     'h0    
#   rvalid   integral         1     'h0    
#   rdata    integral         128   'h0    
#   rid      integral         6     'h0    
#   rlast    integral         1     'h0    
#   rresp    integral         2     'h0    
# -----------------------------------------
# 
# UVM_INFO D:/AMBA/AXI4_new/sim/../src/sb/axi_mem_model.sv(104) @ 2265000: uvm_test_top.env_h.mem_h [axi_mem_model] write_data_of_each_transaction::145
# UVM_INFO D:/AMBA/AXI4_new/sim/../src/sb/axi_mem_model.sv(111) @ 2265000: uvm_test_top.env_h.mem_h [axi_mem_model] write_excute_complete_successfully
# UVM_INFO D:/AMBA/AXI4_new/sim/../src/sequences/master_sequences/axi_master_seqc_base.sv(46) @ 2275000: uvm_test_top.env_h.axi_m_agt.w_agt.seqr_h@@w_seqc [axi_m_w_channel_seqc] Base_Body_seqcs_start's
# UVM_INFO D:/AMBA/AXI4_new/sim/../src/sequences/master_sequences/axi_master_seqc_base.sv(75) @ 2275000: uvm_test_top.env_h.axi_m_agt.w_agt.seqr_h@@w_seqc [axi_m_w_channel_seqc] lawlen:0
# UVM_INFO D:/AMBA/AXI4_new/sim/../src/sequences/master_sequences/axi_master_seqc_base.sv(46) @ 2275000: uvm_test_top.env_h.axi_m_agt.aw_agt.seqr_h@@aw_seqc [axi_m_aw_channel_seqc] Base_Body_seqcs_start's
# UVM_INFO D:/AMBA/AXI4_new/sim/../src/sb/axi_mem_model.sv(30) @ 2345000: uvm_test_top.env_h.mem_h [axi_mem_model] Pushed to write_queue[AWID:1]. Queue Size: 1
# Transaction Details:
# ----------------------------------------
# Name       Type             Size  Value 
# ----------------------------------------
# req        axi_slave_trans  -     @2283 
#   awready  integral         1     'h0   
#   awvalid  integral         1     'h1   
#   awsize   integral         3     'h4   
#   awburst  integral         2     'h2   
#   awlen    integral         8     'h0   
#   awstrb   integral         17    'hb7ef
#   awid     integral         6     'h1   
#   awaddr   integral         32    'hb7  
#   wdata    integral         128   'h0   
#   wlast    integral         1     'h0   
#   wdata    integral         128   'h0   
#   wstrb    integral         17    'h0   
#   wready   integral         1     'h0   
#   wvalid   integral         1     'h0   
#   arready  integral         1     'h0   
#   arvalid  integral         1     'h0   
#   arid     integral         6     'h0   
#   araddr   integral         32    'h0   
#   arstrb   integral         17    'h0   
#   arsize   integral         3     'h0   
#   arlen    integral         8     'h0   
#   arburst  integral         2     'h0   
#   rready   integral         1     'h0   
#   rvalid   integral         1     'h0   
#   rdata    integral         128   'h0   
#   rid      integral         6     'h0   
#   rlast    integral         1     'h0   
#   rresp    integral         2     'h0   
# ----------------------------------------
# 
# UVM_INFO D:/AMBA/AXI4_new/sim/../src/sb/axi_mem_model.sv(104) @ 2345000: uvm_test_top.env_h.mem_h [axi_mem_model] write_data_of_each_transaction::245
# UVM_INFO D:/AMBA/AXI4_new/sim/../src/sb/axi_mem_model.sv(111) @ 2345000: uvm_test_top.env_h.mem_h [axi_mem_model] write_excute_complete_successfully
# UVM_INFO D:/AMBA/AXI4_new/sim/../src/sequences/master_sequences/axi_master_seqc_base.sv(46) @ 2365000: uvm_test_top.env_h.axi_m_agt.aw_agt.seqr_h@@aw_seqc [axi_m_aw_channel_seqc] Base_Body_seqcs_start's
# UVM_INFO D:/AMBA/AXI4_new/sim/../src/sequences/master_sequences/axi_master_seqc_base.sv(46) @ 2365000: uvm_test_top.env_h.axi_m_agt.w_agt.seqr_h@@w_seqc [axi_m_w_channel_seqc] Base_Body_seqcs_start's
# UVM_INFO D:/AMBA/AXI4_new/sim/../src/sequences/master_sequences/axi_master_seqc_base.sv(75) @ 2365000: uvm_test_top.env_h.axi_m_agt.w_agt.seqr_h@@w_seqc [axi_m_w_channel_seqc] lawlen:4
# UVM_INFO D:/AMBA/AXI4_new/sim/../src/sb/axi_mem_model.sv(30) @ 2385000: uvm_test_top.env_h.mem_h [axi_mem_model] Pushed to write_queue[AWID:2]. Queue Size: 1
# Transaction Details:
# -----------------------------------------
# Name       Type             Size  Value  
# -----------------------------------------
# req        axi_slave_trans  -     @2295  
#   awready  integral         1     'h0    
#   awvalid  integral         1     'h1    
#   awsize   integral         3     'h4    
#   awburst  integral         2     'h1    
#   awlen    integral         8     'h4    
#   awstrb   integral         17    'h15e21
#   awid     integral         6     'h2    
#   awaddr   integral         32    'h48   
#   wdata    integral         128   'h0    
#   wlast    integral         1     'h0    
#   wdata    integral         128   'h0    
#   wstrb    integral         17    'h0    
#   wready   integral         1     'h0    
#   wvalid   integral         1     'h0    
#   arready  integral         1     'h0    
#   arvalid  integral         1     'h0    
#   arid     integral         6     'h0    
#   araddr   integral         32    'h0    
#   arstrb   integral         17    'h0    
#   arsize   integral         3     'h0    
#   arlen    integral         8     'h0    
#   arburst  integral         2     'h0    
#   rready   integral         1     'h0    
#   rvalid   integral         1     'h0    
#   rdata    integral         128   'h0    
#   rid      integral         6     'h0    
#   rlast    integral         1     'h0    
#   rresp    integral         2     'h0    
# -----------------------------------------
# 
# UVM_INFO D:/AMBA/AXI4_new/sim/../src/sb/axi_mem_model.sv(104) @ 2385000: uvm_test_top.env_h.mem_h [axi_mem_model] write_data_of_each_transaction::245
# UVM_INFO D:/AMBA/AXI4_new/sim/../src/sb/axi_mem_model.sv(111) @ 2385000: uvm_test_top.env_h.mem_h [axi_mem_model] write_excute_complete_successfully
# UVM_INFO D:/AMBA/AXI4_new/sim/../src/sequences/master_sequences/axi_master_seqc_base.sv(46) @ 2395000: uvm_test_top.env_h.axi_m_agt.aw_agt.seqr_h@@aw_seqc [axi_m_aw_channel_seqc] Base_Body_seqcs_start's
# UVM_INFO D:/AMBA/AXI4_new/sim/../src/sb/axi_mem_model.sv(30) @ 2455000: uvm_test_top.env_h.mem_h [axi_mem_model] Pushed to write_queue[AWID:4]. Queue Size: 1
# Transaction Details:
# -----------------------------------------
# Name       Type             Size  Value  
# -----------------------------------------
# req        axi_slave_trans  -     @2315  
#   awready  integral         1     'h0    
#   awvalid  integral         1     'h1    
#   awsize   integral         3     'h4    
#   awburst  integral         2     'h1    
#   awlen    integral         8     'h4    
#   awstrb   integral         17    'h1932a
#   awid     integral         6     'h4    
#   awaddr   integral         32    'h48   
#   wdata    integral         128   'h0    
#   wlast    integral         1     'h0    
#   wdata    integral         128   'h0    
#   wstrb    integral         17    'h0    
#   wready   integral         1     'h0    
#   wvalid   integral         1     'h0    
#   arready  integral         1     'h0    
#   arvalid  integral         1     'h0    
#   arid     integral         6     'h0    
#   araddr   integral         32    'h0    
#   arstrb   integral         17    'h0    
#   arsize   integral         3     'h0    
#   arlen    integral         8     'h0    
#   arburst  integral         2     'h0    
#   rready   integral         1     'h0    
#   rvalid   integral         1     'h0    
#   rdata    integral         128   'h0    
#   rid      integral         6     'h0    
#   rlast    integral         1     'h0    
#   rresp    integral         2     'h0    
# -----------------------------------------
# 
# UVM_INFO D:/AMBA/AXI4_new/sim/../src/sb/axi_mem_model.sv(104) @ 2455000: uvm_test_top.env_h.mem_h [axi_mem_model] write_data_of_each_transaction::245
# UVM_INFO D:/AMBA/AXI4_new/sim/../src/sb/axi_mem_model.sv(111) @ 2455000: uvm_test_top.env_h.mem_h [axi_mem_model] write_excute_complete_successfully
# UVM_INFO D:/AMBA/AXI4_new/sim/../src/sequences/master_sequences/axi_master_seqc_base.sv(46) @ 2465000: uvm_test_top.env_h.axi_m_agt.aw_agt.seqr_h@@aw_seqc [axi_m_aw_channel_seqc] Base_Body_seqcs_start's
# UVM_INFO D:/AMBA/AXI4_new/sim/../src/sb/axi_mem_model.sv(30) @ 2495000: uvm_test_top.env_h.mem_h [axi_mem_model] Pushed to write_queue[AWID:13]. Queue Size: 1
# Transaction Details:
# -----------------------------------------
# Name       Type             Size  Value  
# -----------------------------------------
# req        axi_slave_trans  -     @2327  
#   awready  integral         1     'h0    
#   awvalid  integral         1     'h1    
#   awsize   integral         3     'h4    
#   awburst  integral         2     'h1    
#   awlen    integral         8     'h4    
#   awstrb   integral         17    'h1b4a8
#   awid     integral         6     'hd    
#   awaddr   integral         32    'h48   
#   wdata    integral         128   'h0    
#   wlast    integral         1     'h0    
#   wdata    integral         128   'h0    
#   wstrb    integral         17    'h0    
#   wready   integral         1     'h0    
#   wvalid   integral         1     'h0    
#   arready  integral         1     'h0    
#   arvalid  integral         1     'h0    
#   arid     integral         6     'h0    
#   araddr   integral         32    'h0    
#   arstrb   integral         17    'h0    
#   arsize   integral         3     'h0    
#   arlen    integral         8     'h0    
#   arburst  integral         2     'h0    
#   rready   integral         1     'h0    
#   rvalid   integral         1     'h0    
#   rdata    integral         128   'h0    
#   rid      integral         6     'h0    
#   rlast    integral         1     'h0    
#   rresp    integral         2     'h0    
# -----------------------------------------
# 
# UVM_INFO D:/AMBA/AXI4_new/sim/../src/sb/axi_mem_model.sv(104) @ 2495000: uvm_test_top.env_h.mem_h [axi_mem_model] write_data_of_each_transaction::245
# UVM_INFO D:/AMBA/AXI4_new/sim/../src/sb/axi_mem_model.sv(111) @ 2495000: uvm_test_top.env_h.mem_h [axi_mem_model] write_excute_complete_successfully
# UVM_INFO D:/AMBA/AXI4_new/sim/../src/sequences/master_sequences/axi_master_seqc_base.sv(46) @ 2505000: uvm_test_top.env_h.axi_m_agt.aw_agt.seqr_h@@aw_seqc [axi_m_aw_channel_seqc] Base_Body_seqcs_start's
# UVM_INFO D:/AMBA/AXI4_new/sim/../src/sb/axi_mem_model.sv(30) @ 2615000: uvm_test_top.env_h.mem_h [axi_mem_model] Pushed to write_queue[AWID:15]. Queue Size: 1
# Transaction Details:
# ----------------------------------------
# Name       Type             Size  Value 
# ----------------------------------------
# req        axi_slave_trans  -     @2335 
#   awready  integral         1     'h0   
#   awvalid  integral         1     'h1   
#   awsize   integral         3     'h4   
#   awburst  integral         2     'h1   
#   awlen    integral         8     'h4   
#   awstrb   integral         17    'h5cb3
#   awid     integral         6     'hf   
#   awaddr   integral         32    'h48  
#   wdata    integral         128   'h0   
#   wlast    integral         1     'h0   
#   wdata    integral         128   'h0   
#   wstrb    integral         17    'h0   
#   wready   integral         1     'h0   
#   wvalid   integral         1     'h0   
#   arready  integral         1     'h0   
#   arvalid  integral         1     'h0   
#   arid     integral         6     'h0   
#   araddr   integral         32    'h0   
#   arstrb   integral         17    'h0   
#   arsize   integral         3     'h0   
#   arlen    integral         8     'h0   
#   arburst  integral         2     'h0   
#   rready   integral         1     'h0   
#   rvalid   integral         1     'h0   
#   rdata    integral         128   'h0   
#   rid      integral         6     'h0   
#   rlast    integral         1     'h0   
#   rresp    integral         2     'h0   
# ----------------------------------------
# 
# UVM_INFO D:/AMBA/AXI4_new/sim/../src/sb/axi_mem_model.sv(104) @ 2615000: uvm_test_top.env_h.mem_h [axi_mem_model] write_data_of_each_transaction::245
# UVM_INFO D:/AMBA/AXI4_new/sim/../src/sb/axi_mem_model.sv(111) @ 2615000: uvm_test_top.env_h.mem_h [axi_mem_model] write_excute_complete_successfully
# UVM_INFO D:/AMBA/AXI4_new/sim/../src/sequences/master_sequences/axi_master_seqc_base.sv(46) @ 2625000: uvm_test_top.env_h.axi_m_agt.aw_agt.seqr_h@@aw_seqc [axi_m_aw_channel_seqc] Base_Body_seqcs_start's
# UVM_INFO D:/AMBA/AXI4_new/sim/../src/sb/axi_mem_model.sv(30) @ 2725000: uvm_test_top.env_h.mem_h [axi_mem_model] Pushed to write_queue[AWID:11]. Queue Size: 1
# Transaction Details:
# ----------------------------------------
# Name       Type             Size  Value 
# ----------------------------------------
# req        axi_slave_trans  -     @2351 
#   awready  integral         1     'h0   
#   awvalid  integral         1     'h1   
#   awsize   integral         3     'h4   
#   awburst  integral         2     'h1   
#   awlen    integral         8     'h4   
#   awstrb   integral         17    'he1bc
#   awid     integral         6     'hb   
#   awaddr   integral         32    'h48  
#   wdata    integral         128   'h0   
#   wlast    integral         1     'h0   
#   wdata    integral         128   'h0   
#   wstrb    integral         17    'h0   
#   wready   integral         1     'h0   
#   wvalid   integral         1     'h0   
#   arready  integral         1     'h0   
#   arvalid  integral         1     'h0   
#   arid     integral         6     'h0   
#   araddr   integral         32    'h0   
#   arstrb   integral         17    'h0   
#   arsize   integral         3     'h0   
#   arlen    integral         8     'h0   
#   arburst  integral         2     'h0   
#   rready   integral         1     'h0   
#   rvalid   integral         1     'h0   
#   rdata    integral         128   'h0   
#   rid      integral         6     'h0   
#   rlast    integral         1     'h0   
#   rresp    integral         2     'h0   
# ----------------------------------------
# 
# UVM_INFO D:/AMBA/AXI4_new/sim/../src/sb/axi_mem_model.sv(104) @ 2725000: uvm_test_top.env_h.mem_h [axi_mem_model] write_data_of_each_transaction::197 111 111 69 9
# UVM_INFO D:/AMBA/AXI4_new/sim/../src/sb/axi_mem_model.sv(111) @ 2725000: uvm_test_top.env_h.mem_h [axi_mem_model] write_excute_complete_successfully
# UVM_INFO D:/AMBA/AXI4_new/sim/../src/sequences/master_sequences/axi_master_seqc_base.sv(46) @ 2735000: uvm_test_top.env_h.axi_m_agt.w_agt.seqr_h@@w_seqc [axi_m_w_channel_seqc] Base_Body_seqcs_start's
# UVM_INFO D:/AMBA/AXI4_new/sim/../src/sequences/master_sequences/axi_master_seqc_base.sv(75) @ 2735000: uvm_test_top.env_h.axi_m_agt.w_agt.seqr_h@@w_seqc [axi_m_w_channel_seqc] lawlen:4
# UVM_INFO D:/AMBA/AXI4_new/sim/../src/sequences/master_sequences/axi_master_seqc_base.sv(46) @ 3085000: uvm_test_top.env_h.axi_m_agt.w_agt.seqr_h@@w_seqc [axi_m_w_channel_seqc] Base_Body_seqcs_start's
# UVM_INFO D:/AMBA/AXI4_new/sim/../src/sequences/master_sequences/axi_master_seqc_base.sv(75) @ 3085000: uvm_test_top.env_h.axi_m_agt.w_agt.seqr_h@@w_seqc [axi_m_w_channel_seqc] lawlen:4
# UVM_INFO D:/AMBA/AXI4_new/sim/../src/sequences/master_sequences/axi_master_seqc_base.sv(46) @ 3505000: uvm_test_top.env_h.axi_m_agt.w_agt.seqr_h@@w_seqc [axi_m_w_channel_seqc] Base_Body_seqcs_start's
# UVM_INFO D:/AMBA/AXI4_new/sim/../src/sequences/master_sequences/axi_master_seqc_base.sv(75) @ 3505000: uvm_test_top.env_h.axi_m_agt.w_agt.seqr_h@@w_seqc [axi_m_w_channel_seqc] lawlen:4
# UVM_INFO D:/AMBA/AXI4_new/sim/../src/sequences/master_sequences/axi_master_seqc_base.sv(46) @ 3845000: uvm_test_top.env_h.axi_m_agt.w_agt.seqr_h@@w_seqc [axi_m_w_channel_seqc] Base_Body_seqcs_start's
# UVM_INFO D:/AMBA/AXI4_new/sim/../src/sequences/master_sequences/axi_master_seqc_base.sv(75) @ 3845000: uvm_test_top.env_h.axi_m_agt.w_agt.seqr_h@@w_seqc [axi_m_w_channel_seqc] lawlen:4
# UVM_INFO D:/AMBA/AXI4_new/sim/../src/sequences/master_sequences/axi_master_seqc_base.sv(46) @ 4145000: uvm_test_top.env_h.axi_m_agt.aw_agt.seqr_h@@aw_seqc [axi_m_aw_channel_seqc] Base_Body_seqcs_start's
# UVM_INFO D:/AMBA/AXI4_new/sim/../src/sequences/master_sequences/axi_master_seqc_base.sv(46) @ 4145000: uvm_test_top.env_h.axi_m_agt.w_agt.seqr_h@@w_seqc [axi_m_w_channel_seqc] Base_Body_seqcs_start's
# UVM_INFO D:/AMBA/AXI4_new/sim/../src/sequences/master_sequences/axi_master_seqc_base.sv(75) @ 4145000: uvm_test_top.env_h.axi_m_agt.w_agt.seqr_h@@w_seqc [axi_m_w_channel_seqc] lawlen:4
# UVM_INFO D:/AMBA/AXI4_new/sim/../src/sb/axi_mem_model.sv(30) @ 4185000: uvm_test_top.env_h.mem_h [axi_mem_model] Pushed to write_queue[AWID:3]. Queue Size: 1
# Transaction Details:
# ----------------------------------------
# Name       Type             Size  Value 
# ----------------------------------------
# req        axi_slave_trans  -     @2363 
#   awready  integral         1     'h0   
#   awvalid  integral         1     'h1   
#   awsize   integral         3     'h4   
#   awburst  integral         2     'h1   
#   awlen    integral         8     'h4   
#   awstrb   integral         17    'h2d60
#   awid     integral         6     'h3   
#   awaddr   integral         32    'hbd  
#   wdata    integral         128   'h0   
#   wlast    integral         1     'h0   
#   wdata    integral         128   'h0   
#   wstrb    integral         17    'h0   
#   wready   integral         1     'h0   
#   wvalid   integral         1     'h0   
#   arready  integral         1     'h0   
#   arvalid  integral         1     'h0   
#   arid     integral         6     'h0   
#   araddr   integral         32    'h0   
#   arstrb   integral         17    'h0   
#   arsize   integral         3     'h0   
#   arlen    integral         8     'h0   
#   arburst  integral         2     'h0   
#   rready   integral         1     'h0   
#   rvalid   integral         1     'h0   
#   rdata    integral         128   'h0   
#   rid      integral         6     'h0   
#   rlast    integral         1     'h0   
#   rresp    integral         2     'h0   
# ----------------------------------------
# 
# UVM_INFO D:/AMBA/AXI4_new/sim/../src/sb/axi_mem_model.sv(104) @ 4185000: uvm_test_top.env_h.mem_h [axi_mem_model] write_data_of_each_transaction::156 133 159 37
# UVM_INFO D:/AMBA/AXI4_new/sim/../src/sb/axi_mem_model.sv(111) @ 4185000: uvm_test_top.env_h.mem_h [axi_mem_model] write_excute_complete_successfully
# UVM_INFO D:/AMBA/AXI4_new/sim/../src/sequences/master_sequences/axi_master_seqc_base.sv(46) @ 4195000: uvm_test_top.env_h.axi_m_agt.aw_agt.seqr_h@@aw_seqc [axi_m_aw_channel_seqc] Base_Body_seqcs_start's
# UVM_INFO D:/AMBA/AXI4_new/sim/../src/sb/axi_mem_model.sv(30) @ 4275000: uvm_test_top.env_h.mem_h [axi_mem_model] Pushed to write_queue[AWID:6]. Queue Size: 1
# Transaction Details:
# -----------------------------------------
# Name       Type             Size  Value  
# -----------------------------------------
# req        axi_slave_trans  -     @2463  
#   awready  integral         1     'h0    
#   awvalid  integral         1     'h1    
#   awsize   integral         3     'h4    
#   awburst  integral         2     'h1    
#   awlen    integral         8     'h4    
#   awstrb   integral         17    'h1cac2
#   awid     integral         6     'h6    
#   awaddr   integral         32    'hbd   
#   wdata    integral         128   'h0    
#   wlast    integral         1     'h0    
#   wdata    integral         128   'h0    
#   wstrb    integral         17    'h0    
#   wready   integral         1     'h0    
#   wvalid   integral         1     'h0    
#   arready  integral         1     'h0    
#   arvalid  integral         1     'h0    
#   arid     integral         6     'h0    
#   araddr   integral         32    'h0    
#   arstrb   integral         17    'h0    
#   arsize   integral         3     'h0    
#   arlen    integral         8     'h0    
#   arburst  integral         2     'h0    
#   rready   integral         1     'h0    
#   rvalid   integral         1     'h0    
#   rdata    integral         128   'h0    
#   rid      integral         6     'h0    
#   rlast    integral         1     'h0    
#   rresp    integral         2     'h0    
# -----------------------------------------
# 
# UVM_INFO D:/AMBA/AXI4_new/sim/../src/sb/axi_mem_model.sv(104) @ 4275000: uvm_test_top.env_h.mem_h [axi_mem_model] write_data_of_each_transaction::156 133 159 37
# UVM_INFO D:/AMBA/AXI4_new/sim/../src/sb/axi_mem_model.sv(111) @ 4275000: uvm_test_top.env_h.mem_h [axi_mem_model] write_excute_complete_successfully
# UVM_INFO D:/AMBA/AXI4_new/sim/../src/sequences/master_sequences/axi_master_seqc_base.sv(46) @ 4285000: uvm_test_top.env_h.axi_m_agt.aw_agt.seqr_h@@aw_seqc [axi_m_aw_channel_seqc] Base_Body_seqcs_start's
# UVM_INFO D:/AMBA/AXI4_new/sim/../src/sb/axi_mem_model.sv(30) @ 4305000: uvm_test_top.env_h.mem_h [axi_mem_model] Pushed to write_queue[AWID:5]. Queue Size: 1
# Transaction Details:
# ----------------------------------------
# Name       Type             Size  Value 
# ----------------------------------------
# req        axi_slave_trans  -     @2475 
#   awready  integral         1     'h0   
#   awvalid  integral         1     'h1   
#   awsize   integral         3     'h4   
#   awburst  integral         2     'h1   
#   awlen    integral         8     'h4   
#   awstrb   integral         17    'ha0ad
#   awid     integral         6     'h5   
#   awaddr   integral         32    'hbd  
#   wdata    integral         128   'h0   
#   wlast    integral         1     'h0   
#   wdata    integral         128   'h0   
#   wstrb    integral         17    'h0   
#   wready   integral         1     'h0   
#   wvalid   integral         1     'h0   
#   arready  integral         1     'h0   
#   arvalid  integral         1     'h0   
#   arid     integral         6     'h0   
#   araddr   integral         32    'h0   
#   arstrb   integral         17    'h0   
#   arsize   integral         3     'h0   
#   arlen    integral         8     'h0   
#   arburst  integral         2     'h0   
#   rready   integral         1     'h0   
#   rvalid   integral         1     'h0   
#   rdata    integral         128   'h0   
#   rid      integral         6     'h0   
#   rlast    integral         1     'h0   
#   rresp    integral         2     'h0   
# ----------------------------------------
# 
# UVM_INFO D:/AMBA/AXI4_new/sim/../src/sb/axi_mem_model.sv(104) @ 4305000: uvm_test_top.env_h.mem_h [axi_mem_model] write_data_of_each_transaction::156 133 159 37
# UVM_INFO D:/AMBA/AXI4_new/sim/../src/sb/axi_mem_model.sv(111) @ 4305000: uvm_test_top.env_h.mem_h [axi_mem_model] write_excute_complete_successfully
# UVM_INFO D:/AMBA/AXI4_new/sim/../src/sequences/master_sequences/axi_master_seqc_base.sv(46) @ 4315000: uvm_test_top.env_h.axi_m_agt.aw_agt.seqr_h@@aw_seqc [axi_m_aw_channel_seqc] Base_Body_seqcs_start's
# UVM_INFO D:/AMBA/AXI4_new/sim/../src/sb/axi_mem_model.sv(30) @ 4365000: uvm_test_top.env_h.mem_h [axi_mem_model] Pushed to write_queue[AWID:7]. Queue Size: 1
# Transaction Details:
# ----------------------------------------
# Name       Type             Size  Value 
# ----------------------------------------
# req        axi_slave_trans  -     @2487 
#   awready  integral         1     'h0   
#   awvalid  integral         1     'h1   
#   awsize   integral         3     'h4   
#   awburst  integral         2     'h1   
#   awlen    integral         8     'h4   
#   awstrb   integral         17    'hcd3a
#   awid     integral         6     'h7   
#   awaddr   integral         32    'hbd  
#   wdata    integral         128   'h0   
#   wlast    integral         1     'h0   
#   wdata    integral         128   'h0   
#   wstrb    integral         17    'h0   
#   wready   integral         1     'h0   
#   wvalid   integral         1     'h0   
#   arready  integral         1     'h0   
#   arvalid  integral         1     'h0   
#   arid     integral         6     'h0   
#   araddr   integral         32    'h0   
#   arstrb   integral         17    'h0   
#   arsize   integral         3     'h0   
#   arlen    integral         8     'h0   
#   arburst  integral         2     'h0   
#   rready   integral         1     'h0   
#   rvalid   integral         1     'h0   
#   rdata    integral         128   'h0   
#   rid      integral         6     'h0   
#   rlast    integral         1     'h0   
#   rresp    integral         2     'h0   
# ----------------------------------------
# 
# UVM_INFO D:/AMBA/AXI4_new/sim/../src/sb/axi_mem_model.sv(104) @ 4365000: uvm_test_top.env_h.mem_h [axi_mem_model] write_data_of_each_transaction::156 133 159 37
# UVM_INFO D:/AMBA/AXI4_new/sim/../src/sb/axi_mem_model.sv(111) @ 4365000: uvm_test_top.env_h.mem_h [axi_mem_model] write_excute_complete_successfully
# UVM_INFO D:/AMBA/AXI4_new/sim/../src/sequences/master_sequences/axi_master_seqc_base.sv(46) @ 4375000: uvm_test_top.env_h.axi_m_agt.aw_agt.seqr_h@@aw_seqc [axi_m_aw_channel_seqc] Base_Body_seqcs_start's
# UVM_INFO D:/AMBA/AXI4_new/sim/../src/sb/axi_mem_model.sv(30) @ 4445000: uvm_test_top.env_h.mem_h [axi_mem_model] Pushed to write_queue[AWID:2]. Queue Size: 1
# Transaction Details:
# ----------------------------------------
# Name       Type             Size  Value 
# ----------------------------------------
# req        axi_slave_trans  -     @2499 
#   awready  integral         1     'h0   
#   awvalid  integral         1     'h1   
#   awsize   integral         3     'h4   
#   awburst  integral         2     'h1   
#   awlen    integral         8     'h4   
#   awstrb   integral         17    'h8993
#   awid     integral         6     'h2   
#   awaddr   integral         32    'hbd  
#   wdata    integral         128   'h0   
#   wlast    integral         1     'h0   
#   wdata    integral         128   'h0   
#   wstrb    integral         17    'h0   
#   wready   integral         1     'h0   
#   wvalid   integral         1     'h0   
#   arready  integral         1     'h0   
#   arvalid  integral         1     'h0   
#   arid     integral         6     'h0   
#   araddr   integral         32    'h0   
#   arstrb   integral         17    'h0   
#   arsize   integral         3     'h0   
#   arlen    integral         8     'h0   
#   arburst  integral         2     'h0   
#   rready   integral         1     'h0   
#   rvalid   integral         1     'h0   
#   rdata    integral         128   'h0   
#   rid      integral         6     'h0   
#   rlast    integral         1     'h0   
#   rresp    integral         2     'h0   
# ----------------------------------------
# 
# UVM_INFO D:/AMBA/AXI4_new/sim/../src/sb/axi_mem_model.sv(104) @ 4445000: uvm_test_top.env_h.mem_h [axi_mem_model] write_data_of_each_transaction::156 133 159 37
# UVM_INFO D:/AMBA/AXI4_new/sim/../src/sb/axi_mem_model.sv(111) @ 4445000: uvm_test_top.env_h.mem_h [axi_mem_model] write_excute_complete_successfully
# UVM_INFO D:/AMBA/AXI4_new/sim/../src/sequences/master_sequences/axi_master_seqc_base.sv(46) @ 4485000: uvm_test_top.env_h.axi_m_agt.w_agt.seqr_h@@w_seqc [axi_m_w_channel_seqc] Base_Body_seqcs_start's
# UVM_INFO D:/AMBA/AXI4_new/sim/../src/sequences/master_sequences/axi_master_seqc_base.sv(75) @ 4485000: uvm_test_top.env_h.axi_m_agt.w_agt.seqr_h@@w_seqc [axi_m_w_channel_seqc] lawlen:4
# UVM_INFO D:/AMBA/AXI4_new/sim/../src/sequences/master_sequences/axi_master_seqc_base.sv(46) @ 4845000: uvm_test_top.env_h.axi_m_agt.w_agt.seqr_h@@w_seqc [axi_m_w_channel_seqc] Base_Body_seqcs_start's
# UVM_INFO D:/AMBA/AXI4_new/sim/../src/sequences/master_sequences/axi_master_seqc_base.sv(75) @ 4845000: uvm_test_top.env_h.axi_m_agt.w_agt.seqr_h@@w_seqc [axi_m_w_channel_seqc] lawlen:4
# UVM_INFO D:/AMBA/AXI4_new/sim/../src/sequences/master_sequences/axi_master_seqc_base.sv(46) @ 5245000: uvm_test_top.env_h.axi_m_agt.w_agt.seqr_h@@w_seqc [axi_m_w_channel_seqc] Base_Body_seqcs_start's
# UVM_INFO D:/AMBA/AXI4_new/sim/../src/sequences/master_sequences/axi_master_seqc_base.sv(75) @ 5245000: uvm_test_top.env_h.axi_m_agt.w_agt.seqr_h@@w_seqc [axi_m_w_channel_seqc] lawlen:4
# UVM_INFO D:/AMBA/AXI4_new/sim/../src/sequences/master_sequences/axi_master_seqc_base.sv(46) @ 5685000: uvm_test_top.env_h.axi_m_agt.w_agt.seqr_h@@w_seqc [axi_m_w_channel_seqc] Base_Body_seqcs_start's
# UVM_INFO D:/AMBA/AXI4_new/sim/../src/sequences/master_sequences/axi_master_seqc_base.sv(75) @ 5685000: uvm_test_top.env_h.axi_m_agt.w_agt.seqr_h@@w_seqc [axi_m_w_channel_seqc] lawlen:4
# UVM_INFO D:/AMBA/AXI4_new/sim/../src/sequences/master_sequences/axi_master_seqc_base.sv(46) @ 6035000: uvm_test_top.env_h.axi_m_agt.aw_agt.seqr_h@@aw_seqc [axi_m_aw_channel_seqc] Base_Body_seqcs_start's
# UVM_INFO D:/AMBA/AXI4_new/sim/../src/sequences/master_sequences/axi_master_seqc_base.sv(46) @ 6035000: uvm_test_top.env_h.axi_m_agt.w_agt.seqr_h@@w_seqc [axi_m_w_channel_seqc] Base_Body_seqcs_start's
# UVM_INFO D:/AMBA/AXI4_new/sim/../src/sequences/master_sequences/axi_master_seqc_base.sv(75) @ 6035000: uvm_test_top.env_h.axi_m_agt.w_agt.seqr_h@@w_seqc [axi_m_w_channel_seqc] lawlen:0
# UVM_INFO D:/AMBA/AXI4_new/sim/../src/sb/axi_mem_model.sv(30) @ 6045000: uvm_test_top.env_h.mem_h [axi_mem_model] Pushed to write_queue[AWID:1]. Queue Size: 1
# Transaction Details:
# ----------------------------------------
# Name       Type             Size  Value 
# ----------------------------------------
# req        axi_slave_trans  -     @2511 
#   awready  integral         1     'h0   
#   awvalid  integral         1     'h1   
#   awsize   integral         3     'h4   
#   awburst  integral         2     'h1   
#   awlen    integral         8     'h0   
#   awstrb   integral         17    'hf9cb
#   awid     integral         6     'h1   
#   awaddr   integral         32    'h5d  
#   wdata    integral         128   'h0   
#   wlast    integral         1     'h0   
#   wdata    integral         128   'h0   
#   wstrb    integral         17    'h0   
#   wready   integral         1     'h0   
#   wvalid   integral         1     'h0   
#   arready  integral         1     'h0   
#   arvalid  integral         1     'h0   
#   arid     integral         6     'h0   
#   araddr   integral         32    'h0   
#   arstrb   integral         17    'h0   
#   arsize   integral         3     'h0   
#   arlen    integral         8     'h0   
#   arburst  integral         2     'h0   
#   rready   integral         1     'h0   
#   rvalid   integral         1     'h0   
#   rdata    integral         128   'h0   
#   rid      integral         6     'h0   
#   rlast    integral         1     'h0   
#   rresp    integral         2     'h0   
# ----------------------------------------
# 
# UVM_INFO D:/AMBA/AXI4_new/sim/../src/sb/axi_mem_model.sv(104) @ 6045000: uvm_test_top.env_h.mem_h [axi_mem_model] write_data_of_each_transaction::160 240 240 232 247
# UVM_INFO D:/AMBA/AXI4_new/sim/../src/sb/axi_mem_model.sv(111) @ 6045000: uvm_test_top.env_h.mem_h [axi_mem_model] write_excute_complete_successfully
# UVM_INFO D:/AMBA/AXI4_new/sim/../src/sequences/master_sequences/axi_master_seqc_base.sv(46) @ 6055000: uvm_test_top.env_h.axi_m_agt.aw_agt.seqr_h@@aw_seqc [axi_m_aw_channel_seqc] Base_Body_seqcs_start's
# UVM_INFO D:/AMBA/AXI4_new/sim/../src/sequences/master_sequences/axi_master_seqc_base.sv(46) @ 6075000: uvm_test_top.env_h.axi_m_agt.w_agt.seqr_h@@w_seqc [axi_m_w_channel_seqc] Base_Body_seqcs_start's
# UVM_INFO D:/AMBA/AXI4_new/sim/../src/sequences/master_sequences/axi_master_seqc_base.sv(75) @ 6075000: uvm_test_top.env_h.axi_m_agt.w_agt.seqr_h@@w_seqc [axi_m_w_channel_seqc] lawlen:0
# UVM_INFO D:/AMBA/AXI4_new/sim/../src/sb/axi_mem_model.sv(30) @ 6115000: uvm_test_top.env_h.mem_h [axi_mem_model] Pushed to write_queue[AWID:15]. Queue Size: 1
# Transaction Details:
# ----------------------------------------
# Name       Type             Size  Value 
# ----------------------------------------
# req        axi_slave_trans  -     @2611 
#   awready  integral         1     'h0   
#   awvalid  integral         1     'h1   
#   awsize   integral         3     'h4   
#   awburst  integral         2     'h1   
#   awlen    integral         8     'h0   
#   awstrb   integral         17    'h51b0
#   awid     integral         6     'hf   
#   awaddr   integral         32    'h5d  
#   wdata    integral         128   'h0   
#   wlast    integral         1     'h0   
#   wdata    integral         128   'h0   
#   wstrb    integral         17    'h0   
#   wready   integral         1     'h0   
#   wvalid   integral         1     'h0   
#   arready  integral         1     'h0   
#   arvalid  integral         1     'h0   
#   arid     integral         6     'h0   
#   araddr   integral         32    'h0   
#   arstrb   integral         17    'h0   
#   arsize   integral         3     'h0   
#   arlen    integral         8     'h0   
#   arburst  integral         2     'h0   
#   rready   integral         1     'h0   
#   rvalid   integral         1     'h0   
#   rdata    integral         128   'h0   
#   rid      integral         6     'h0   
#   rlast    integral         1     'h0   
#   rresp    integral         2     'h0   
# ----------------------------------------
# 
# UVM_INFO D:/AMBA/AXI4_new/sim/../src/sb/axi_mem_model.sv(104) @ 6115000: uvm_test_top.env_h.mem_h [axi_mem_model] write_data_of_each_transaction::254
# UVM_INFO D:/AMBA/AXI4_new/sim/../src/sb/axi_mem_model.sv(111) @ 6115000: uvm_test_top.env_h.mem_h [axi_mem_model] write_excute_complete_successfully
# UVM_INFO D:/AMBA/AXI4_new/sim/../src/sequences/master_sequences/axi_master_seqc_base.sv(46) @ 6115000: uvm_test_top.env_h.axi_m_agt.w_agt.seqr_h@@w_seqc [axi_m_w_channel_seqc] Base_Body_seqcs_start's
# UVM_INFO D:/AMBA/AXI4_new/sim/../src/sequences/master_sequences/axi_master_seqc_base.sv(75) @ 6115000: uvm_test_top.env_h.axi_m_agt.w_agt.seqr_h@@w_seqc [axi_m_w_channel_seqc] lawlen:0
# UVM_INFO D:/AMBA/AXI4_new/sim/../src/sequences/master_sequences/axi_master_seqc_base.sv(46) @ 6125000: uvm_test_top.env_h.axi_m_agt.aw_agt.seqr_h@@aw_seqc [axi_m_aw_channel_seqc] Base_Body_seqcs_start's
# UVM_INFO D:/AMBA/AXI4_new/sim/../src/sb/axi_mem_model.sv(30) @ 6185000: uvm_test_top.env_h.mem_h [axi_mem_model] Pushed to write_queue[AWID:16]. Queue Size: 1
# Transaction Details:
# ----------------------------------------
# Name       Type             Size  Value 
# ----------------------------------------
# req        axi_slave_trans  -     @2627 
#   awready  integral         1     'h0   
#   awvalid  integral         1     'h1   
#   awsize   integral         3     'h4   
#   awburst  integral         2     'h1   
#   awlen    integral         8     'h0   
#   awstrb   integral         17    'h4574
#   awid     integral         6     'h10  
#   awaddr   integral         32    'h5d  
#   wdata    integral         128   'h0   
#   wlast    integral         1     'h0   
#   wdata    integral         128   'h0   
#   wstrb    integral         17    'h0   
#   wready   integral         1     'h0   
#   wvalid   integral         1     'h0   
#   arready  integral         1     'h0   
#   arvalid  integral         1     'h0   
#   arid     integral         6     'h0   
#   araddr   integral         32    'h0   
#   arstrb   integral         17    'h0   
#   arsize   integral         3     'h0   
#   arlen    integral         8     'h0   
#   arburst  integral         2     'h0   
#   rready   integral         1     'h0   
#   rvalid   integral         1     'h0   
#   rdata    integral         128   'h0   
#   rid      integral         6     'h0   
#   rlast    integral         1     'h0   
#   rresp    integral         2     'h0   
# ----------------------------------------
# 
# UVM_INFO D:/AMBA/AXI4_new/sim/../src/sb/axi_mem_model.sv(104) @ 6185000: uvm_test_top.env_h.mem_h [axi_mem_model] write_data_of_each_transaction::254
# UVM_INFO D:/AMBA/AXI4_new/sim/../src/sb/axi_mem_model.sv(111) @ 6185000: uvm_test_top.env_h.mem_h [axi_mem_model] write_excute_complete_successfully
# UVM_INFO D:/AMBA/AXI4_new/sim/../src/sequences/master_sequences/axi_master_seqc_base.sv(46) @ 6195000: uvm_test_top.env_h.axi_m_agt.aw_agt.seqr_h@@aw_seqc [axi_m_aw_channel_seqc] Base_Body_seqcs_start's
# UVM_INFO D:/AMBA/AXI4_new/sim/../src/sb/axi_mem_model.sv(30) @ 6205000: uvm_test_top.env_h.mem_h [axi_mem_model] Pushed to write_queue[AWID:2]. Queue Size: 1
# Transaction Details:
# -----------------------------------------
# Name       Type             Size  Value  
# -----------------------------------------
# req        axi_slave_trans  -     @2635  
#   awready  integral         1     'h0    
#   awvalid  integral         1     'h1    
#   awsize   integral         3     'h4    
#   awburst  integral         2     'h1    
#   awlen    integral         8     'h0    
#   awstrb   integral         17    'h19b58
#   awid     integral         6     'h2    
#   awaddr   integral         32    'h5d   
#   wdata    integral         128   'h0    
#   wlast    integral         1     'h0    
#   wdata    integral         128   'h0    
#   wstrb    integral         17    'h0    
#   wready   integral         1     'h0    
#   wvalid   integral         1     'h0    
#   arready  integral         1     'h0    
#   arvalid  integral         1     'h0    
#   arid     integral         6     'h0    
#   araddr   integral         32    'h0    
#   arstrb   integral         17    'h0    
#   arsize   integral         3     'h0    
#   arlen    integral         8     'h0    
#   arburst  integral         2     'h0    
#   rready   integral         1     'h0    
#   rvalid   integral         1     'h0    
#   rdata    integral         128   'h0    
#   rid      integral         6     'h0    
#   rlast    integral         1     'h0    
#   rresp    integral         2     'h0    
# -----------------------------------------
# 
# UVM_INFO D:/AMBA/AXI4_new/sim/../src/sb/axi_mem_model.sv(104) @ 6205000: uvm_test_top.env_h.mem_h [axi_mem_model] write_data_of_each_transaction::254
# UVM_INFO D:/AMBA/AXI4_new/sim/../src/sb/axi_mem_model.sv(111) @ 6205000: uvm_test_top.env_h.mem_h [axi_mem_model] write_excute_complete_successfully
# UVM_INFO D:/AMBA/AXI4_new/sim/../src/sequences/master_sequences/axi_master_seqc_base.sv(46) @ 6215000: uvm_test_top.env_h.axi_m_agt.aw_agt.seqr_h@@aw_seqc [axi_m_aw_channel_seqc] Base_Body_seqcs_start's
# UVM_INFO D:/AMBA/AXI4_new/sim/../src/sequences/master_sequences/axi_master_seqc_base.sv(46) @ 6235000: uvm_test_top.env_h.axi_m_agt.w_agt.seqr_h@@w_seqc [axi_m_w_channel_seqc] Base_Body_seqcs_start's
# UVM_INFO D:/AMBA/AXI4_new/sim/../src/sequences/master_sequences/axi_master_seqc_base.sv(75) @ 6235000: uvm_test_top.env_h.axi_m_agt.w_agt.seqr_h@@w_seqc [axi_m_w_channel_seqc] lawlen:0
# UVM_INFO D:/AMBA/AXI4_new/sim/../src/sb/axi_mem_model.sv(30) @ 6295000: uvm_test_top.env_h.mem_h [axi_mem_model] Pushed to write_queue[AWID:3]. Queue Size: 1
# Transaction Details:
# ----------------------------------------
# Name       Type             Size  Value 
# ----------------------------------------
# req        axi_slave_trans  -     @2643 
#   awready  integral         1     'h0   
#   awvalid  integral         1     'h1   
#   awsize   integral         3     'h4   
#   awburst  integral         2     'h1   
#   awlen    integral         8     'h0   
#   awstrb   integral         17    'he2b3
#   awid     integral         6     'h3   
#   awaddr   integral         32    'h5d  
#   wdata    integral         128   'h0   
#   wlast    integral         1     'h0   
#   wdata    integral         128   'h0   
#   wstrb    integral         17    'h0   
#   wready   integral         1     'h0   
#   wvalid   integral         1     'h0   
#   arready  integral         1     'h0   
#   arvalid  integral         1     'h0   
#   arid     integral         6     'h0   
#   araddr   integral         32    'h0   
#   arstrb   integral         17    'h0   
#   arsize   integral         3     'h0   
#   arlen    integral         8     'h0   
#   arburst  integral         2     'h0   
#   rready   integral         1     'h0   
#   rvalid   integral         1     'h0   
#   rdata    integral         128   'h0   
#   rid      integral         6     'h0   
#   rlast    integral         1     'h0   
#   rresp    integral         2     'h0   
# ----------------------------------------
# 
# UVM_INFO D:/AMBA/AXI4_new/sim/../src/sb/axi_mem_model.sv(104) @ 6295000: uvm_test_top.env_h.mem_h [axi_mem_model] write_data_of_each_transaction::243
# UVM_INFO D:/AMBA/AXI4_new/sim/../src/sb/axi_mem_model.sv(111) @ 6295000: uvm_test_top.env_h.mem_h [axi_mem_model] write_excute_complete_successfully
# UVM_INFO D:/AMBA/AXI4_new/sim/../src/sequences/master_sequences/axi_master_seqc_base.sv(46) @ 6295000: uvm_test_top.env_h.axi_m_agt.w_agt.seqr_h@@w_seqc [axi_m_w_channel_seqc] Base_Body_seqcs_start's
# UVM_INFO D:/AMBA/AXI4_new/sim/../src/sequences/master_sequences/axi_master_seqc_base.sv(75) @ 6295000: uvm_test_top.env_h.axi_m_agt.w_agt.seqr_h@@w_seqc [axi_m_w_channel_seqc] lawlen:0
# UVM_INFO verilog_src/uvm-1.1d/src/base/uvm_objection.svh(1267) @ 8325000: reporter [TEST_DONE] 'run' phase is ready to proceed to the 'extract' phase
# 
# --- UVM Report Summary ---
# 
# ** Report counts by severity
# UVM_INFO :  157
# UVM_WARNING :    0
# UVM_ERROR :    0
# UVM_FATAL :    0
# ** Report counts by id
# [Questa UVM]     3
# [RNTST]     1
# [TEST_DONE]     1
# [UVMTOP]     1
# [axi_m_aw_channel_seqc]    25
# [axi_m_w_channel_seqc]    50
# [axi_mem_model]    75
# [axi_r_channel_s_drv]     1
# ** Note: $finish    : C:/questasim64_10.7c/win64/../verilog_src/uvm-1.1d/src/base/uvm_root.svh(430)
#    Time: 8325 ns  Iteration: 54  Instance: /axi_tb_top
# End time: 00:16:38 on Jun 29,2026, Elapsed time: 0:00:05
# Errors: 0, Warnings: 3
